
SetupTitle, Id-Vd_pFET
PrimitiveTest, I/V Sweep
TestParameter, Context.MainFrame, B1500A
TestParameter, Channel.UnitType, SMU, SMU, SMU
TestParameter, Channel.Unit, SMU1:HR/AS, SMU4:HR/AS, SMU6:MP
TestParameter, Channel.IName, Id, Is, Ig
TestParameter, Channel.VName, Vd, Vs, Vg
TestParameter, Channel.Mode, V, V, V
TestParameter, Channel.Func, VAR1, CONST, VAR2
TestParameter, Channel.Index, 
TestParameter, Channel.Time, 
TestParameter, Measurement.Port.Unit, SMU1:HR/AS, SMU4:HR/AS, SMU6:MP
TestParameter, Measurement.Port.SeriesResistor, NONE, NONE, NONE
TestParameter, Measurement.Port.Filter, ON, ON, ON
TestParameter, Measurement.Port.OutputVoltageComparison, 0, 0, 0
TestParameter, Measurement.Primary.Locus, Single
TestParameter, Measurement.Primary.Scale, LINEAR
TestParameter, Measurement.Primary.Start, 0
TestParameter, Measurement.Primary.Stop, -2
TestParameter, Measurement.Primary.Step, -0.013300000000000001
TestParameter, Measurement.Primary.Compliance, 1E-05
TestParameter, Measurement.Primary.PowerCompliance, 0
TestParameter, Measurement.Aborting.Condition, CONTINUE AT ANY
TestParameter, Measurement.PostOutput.Value, START
TestParameter, Measurement.PostOutput.Retention, OFF
TestParameter, Measurement.Secondary.Start, -5
TestParameter, Measurement.Secondary.Count, 8
TestParameter, Measurement.Secondary.Step, -5
TestParameter, Measurement.Secondary.Compliance, 1E-05
TestParameter, Measurement.Secondary.PowerCompliance, 0
TestParameter, Measurement.Bias.Source, 0, 0, -5
TestParameter, Measurement.Bias.Compliance, 1E-05, 1E-05, 1E-05
TestParameter, Measurement.Monitor.Unit, SMU1:HR/AS, SMU4:HR/AS, SMU6:MP
TestParameter, Measurement.Monitor.Adc, HR ADC, HR ADC, HR ADC
TestParameter, Measurement.Monitor.Measurement, Compliance Side, Compliance Side, Compliance Side
TestParameter, Measurement.Monitor.RangingMode, LIMITED, LIMITED, LIMITED
TestParameter, Measurement.Monitor.RangeBoundary, 1nA, 1nA, 1nA
TestParameter, Measurement.Monitor.RangeRating, BY FULL RANGE, BY FULL RANGE, BY FULL RANGE
TestParameter, Measurement.Monitor.RangeRatingCoeff, 50, 50, 50
TestParameter, Measurement.Timing.Hold, 1
TestParameter, Measurement.Timing.Delay, 0
TestParameter, Measurement.Adc.HighSpeed.Mode, AUTO
TestParameter, Measurement.Adc.HighSpeed.Coeff, 1
TestParameter, Measurement.Adc.HighResolution.AutoZero, OFF
TestParameter, Measurement.Adc.HighResolution.Mode, AUTO
TestParameter, Measurement.Adc.HighResolution.Coeff, 127
TestParameter, Measurement.WaitTime.Source.Coeff, 1
TestParameter, Measurement.WaitTime.Source.Offset, 0
TestParameter, Measurement.WaitTime.Monitor.Coeff, 1
TestParameter, Measurement.WaitTime.Monitor.Offset, 0
TestParameter, Function.User.Name, AbsId, AbsIs
TestParameter, Function.User.Unit, A, A
TestParameter, Function.User.Definition, abs(Id), abs(Is)
TestParameter, Output.Graph.Enabled, true
TestParameter, Output.Graph.AutoScaling, false
TestParameter, Output.Graph.XAxis.Data, Vd
TestParameter, Output.Graph.XAxis.Scale, Linear
TestParameter, Output.Graph.XAxis.Left, 0.5
TestParameter, Output.Graph.XAxis.Right, -1
TestParameter, Output.Graph.XAxis.RunTimeAutoScale, false
TestParameter, Output.Graph.YAxis.Data, AbsId, AbsIs
TestParameter, Output.Graph.YAxis.Scale, Linear, Linear
TestParameter, Output.Graph.YAxis.Bottom, 0, 0
TestParameter, Output.Graph.YAxis.Top, 1, 1
TestParameter, Output.Graph.YAxis.Group, Group 1, Group 1
TestParameter, Output.Graph.YAxis.RunTimeAutoScale, true, true
TestParameter, Output.List.Data, Vd, Id, Is, Vg, Ig, Vs, AbsId, AbsIs
TestParameter, AutoAnalysis.Interpolation, false
TestParameter, AutoAnalysis.Line1.Enabled, false
TestParameter, AutoAnalysis.Line1.Type, 1
TestParameter, AutoAnalysis.Line1.Fix, True
TestParameter, AutoAnalysis.Line1.YAxis, 0
TestParameter, AutoAnalysis.Line1.Point1.Type, 0
TestParameter, AutoAnalysis.Line1.Point1.XY.X, 
TestParameter, AutoAnalysis.Line1.Point1.XY.Y, 
TestParameter, AutoAnalysis.Line1.Point1.Data.Var, 
TestParameter, AutoAnalysis.Line1.Point1.Data.Condition, 
TestParameter, AutoAnalysis.Line1.Point1.Data.Start, false
TestParameter, AutoAnalysis.Line1.Point1.Data.StartVar, 
TestParameter, AutoAnalysis.Line1.Point1.Data.StartCondition, 
TestParameter, AutoAnalysis.Line1.Point2.Type, 0
TestParameter, AutoAnalysis.Line1.Point2.XY.X, 
TestParameter, AutoAnalysis.Line1.Point2.XY.Y, 
TestParameter, AutoAnalysis.Line1.Point2.Data.Var, 
TestParameter, AutoAnalysis.Line1.Point2.Data.Condition, 
TestParameter, AutoAnalysis.Line1.Point2.Data.Start, false
TestParameter, AutoAnalysis.Line1.Point2.Data.StartVar, 
TestParameter, AutoAnalysis.Line1.Point2.Data.StartCondition, 
TestParameter, AutoAnalysis.Line1.GradientExpr, 0
TestParameter, AutoAnalysis.Line2.Enabled, false
TestParameter, AutoAnalysis.Line2.Type, 1
TestParameter, AutoAnalysis.Line2.Fix, True
TestParameter, AutoAnalysis.Line2.YAxis, 0
TestParameter, AutoAnalysis.Line2.Point1.Type, 0
TestParameter, AutoAnalysis.Line2.Point1.XY.X, 
TestParameter, AutoAnalysis.Line2.Point1.XY.Y, 
TestParameter, AutoAnalysis.Line2.Point1.Data.Var, 
TestParameter, AutoAnalysis.Line2.Point1.Data.Condition, 
TestParameter, AutoAnalysis.Line2.Point1.Data.Start, false
TestParameter, AutoAnalysis.Line2.Point1.Data.StartVar, 
TestParameter, AutoAnalysis.Line2.Point1.Data.StartCondition, 
TestParameter, AutoAnalysis.Line2.Point2.Type, 0
TestParameter, AutoAnalysis.Line2.Point2.XY.X, 
TestParameter, AutoAnalysis.Line2.Point2.XY.Y, 
TestParameter, AutoAnalysis.Line2.Point2.Data.Var, 
TestParameter, AutoAnalysis.Line2.Point2.Data.Condition, 
TestParameter, AutoAnalysis.Line2.Point2.Data.Start, false
TestParameter, AutoAnalysis.Line2.Point2.Data.StartVar, 
TestParameter, AutoAnalysis.Line2.Point2.Data.StartCondition, 
TestParameter, AutoAnalysis.Line2.GradientExpr, 0
TestParameter, AutoAnalysis.Marker.Enabled, false
TestParameter, AutoAnalysis.Marker.Data.Var, 
TestParameter, AutoAnalysis.Marker.Data.Condition, 
TestParameter, AutoAnalysis.Marker.Data.Start, false
TestParameter, AutoAnalysis.Marker.Data.StartVar, 
TestParameter, AutoAnalysis.Marker.Data.StartCondition, 
MetaData, TestRecord.EntryPoint, true
MetaData, TestRecord.RecordTime, 10/23/2019 09:28:00
MetaData, TestRecord.TestTarget, .2um-2
MetaData, TestRecord.IterationIndex, 9
MetaData, TestRecord.Preservation, true
MetaData, TestRecord.Flag, 
MetaData, TestRecord.Remarks, 
MetaData, TestRecord.LinkKey, c3d5bd76-8e75-4c67-b6e9-a69f42af76e3
Dimension1, 151, 151, 151, 151, 151, 151, 151, 151
Dimension2, 3, 3, 3, 3, 3, 3, 3, 3
DataName, Vd, Vg, Vs, Id, Is, Ig, AbsId, AbsIs
DataValue, 0, -5, 0, 5.9E-14, 4.8000000000000004E-14, -2.917E-12, 5.9E-14, 4.8000000000000004E-14
DataValue, -0.013300000000000001, -5, 0, -4.4E-14, 2.2E-14, -2.636E-12, 4.4E-14, 2.2E-14
DataValue, -0.0267, -5, 0, -6.2E-14, 6.0000000000000005E-15, -1.7300000000000002E-13, 6.2E-14, 6.0000000000000005E-15
DataValue, -0.04, -5, 0, 1.9E-14, -8.0000000000000013E-14, 2.302E-12, 1.9E-14, 8.0000000000000013E-14
DataValue, -0.0533, -5, 0, 1.1E-14, -7.9E-14, 2.7810000000000004E-12, 1.1E-14, 7.9E-14
DataValue, -0.066700000000000009, -5, 0, 3.5E-14, -1.3700000000000002E-13, 7.47E-13, 3.5E-14, 1.3700000000000002E-13
DataValue, -0.08, -5, 0, -3.0000000000000005E-14, -4.3000000000000006E-14, -1.947E-12, 3.0000000000000005E-14, 4.3000000000000006E-14
DataValue, -0.093300000000000008, -5, 0, -5.1000000000000004E-14, -1.4E-14, -2.963E-12, 5.1000000000000004E-14, 1.4E-14
DataValue, -0.1067, -5, 0, -5.700000000000001E-14, -3.4E-14, -1.4720000000000002E-12, 5.700000000000001E-14, 3.4E-14
DataValue, -0.12000000000000001, -5, 0, 4.7E-14, -5E-14, 1.172E-12, 4.7E-14, 5E-14
DataValue, -0.1333, -5, 0, -1.0000000000000002E-14, -9.4E-14, 2.775E-12, 1.0000000000000002E-14, 9.4E-14
DataValue, -0.1467, -5, 0, -4E-15, -1.0800000000000001E-13, 1.946E-12, 4E-15, 1.0800000000000001E-13
DataValue, -0.16, -5, 0, -8.8E-14, -8.5E-14, -7.3800000000000009E-13, 8.8E-14, 8.5E-14
DataValue, -0.1733, -5, 0, -6.0000000000000009E-14, -9.1E-14, -2.7940000000000004E-12, 6.0000000000000009E-14, 9.1E-14
DataValue, -0.1867, -5, 0, -1.3000000000000001E-14, -1.6E-14, -2.478E-12, 1.3000000000000001E-14, 1.6E-14
DataValue, -0.2, -5, 0, -5.8E-14, -6.5E-14, -1.3200000000000002E-13, 5.8E-14, 6.5E-14
DataValue, -0.21330000000000002, -5, 0, -1.4E-14, -9.6000000000000007E-14, 2.4160000000000002E-12, 1.4E-14, 9.6000000000000007E-14
DataValue, -0.2267, -5, 0, -1.34E-13, -1.0100000000000001E-13, 2.7050000000000003E-12, 1.34E-13, 1.0100000000000001E-13
DataValue, -0.24000000000000002, -5, 0, 4.1E-14, -1.24E-13, 4.97E-13, 4.1E-14, 1.24E-13
DataValue, -0.2533, -5, 0, -7E-15, -2E-15, -2.2380000000000004E-12, 7E-15, 2E-15
DataValue, -0.2667, -5, 0, -8.7000000000000008E-14, -5.1000000000000004E-14, -2.9550000000000002E-12, 8.7000000000000008E-14, 5.1000000000000004E-14
DataValue, -0.28, -5, 0, -3.6000000000000004E-14, -1.0000000000000002E-14, -1.163E-12, 3.6000000000000004E-14, 1.0000000000000002E-14
DataValue, -0.2933, -5, 0, -8.6000000000000012E-14, -6.2E-14, 1.404E-12, 8.6000000000000012E-14, 6.2E-14
DataValue, -0.30670000000000003, -5, 0, -4.3000000000000006E-14, -1.03E-13, 2.878E-12, 4.3000000000000006E-14, 1.03E-13
DataValue, -0.32, -5, 0, 4E-15, -1.6600000000000003E-13, 1.78E-12, 4E-15, 1.6600000000000003E-13
DataValue, -0.33330000000000004, -5, 0, -5.2000000000000006E-14, -6.6000000000000009E-14, -1.03E-12, 5.2000000000000006E-14, 6.6000000000000009E-14
DataValue, -0.3467, -5, 0, 4.3000000000000006E-14, -6.4E-14, -2.8680000000000003E-12, 4.3000000000000006E-14, 6.4E-14
DataValue, -0.36000000000000004, -5, 0, -8.2E-14, 1.7E-14, -2.435E-12, 8.2E-14, 1.7E-14
DataValue, -0.3733, -5, 0, -5.1000000000000004E-14, -6.5E-14, -4.5000000000000004E-14, 5.1000000000000004E-14, 6.5E-14
DataValue, -0.38670000000000004, -5, 0, 9.0000000000000011E-15, -7.5000000000000009E-14, 2.5040000000000002E-12, 9.0000000000000011E-15, 7.5000000000000009E-14
DataValue, -0.4, -5, 0, -1E-13, -1.1300000000000001E-13, 2.6720000000000003E-12, 1E-13, 1.1300000000000001E-13
DataValue, -0.4133, -5, 0, -6.9000000000000009E-14, -1.09E-13, 6.7200000000000006E-13, 6.9000000000000009E-14, 1.09E-13
DataValue, -0.4267, -5, 0, -1.28E-13, 1.3000000000000001E-14, -2.0530000000000002E-12, 1.28E-13, 1.3000000000000001E-14
DataValue, -0.44, -5, 0, -1.0200000000000001E-13, -2.4000000000000002E-14, -2.8730000000000004E-12, 1.0200000000000001E-13, 2.4000000000000002E-14
DataValue, -0.45330000000000004, -5, 0, 6.0000000000000005E-15, 1.5000000000000002E-14, -1.519E-12, 6.0000000000000005E-15, 1.5000000000000002E-14
DataValue, -0.4667, -5, 0, -1.8000000000000002E-14, -3.7E-14, 9.5E-13, 1.8000000000000002E-14, 3.7E-14
DataValue, -0.48000000000000004, -5, 0, -2.7000000000000002E-14, -8.0000000000000013E-14, 2.878E-12, 2.7000000000000002E-14, 8.0000000000000013E-14
DataValue, -0.4933, -5, 0, -7.1E-14, -1.03E-13, 2.09E-12, 7.1E-14, 1.03E-13
DataValue, -0.5067, -5, 0, -2.7000000000000002E-14, -1.1100000000000001E-13, -4.71E-13, 2.7000000000000002E-14, 1.1100000000000001E-13
DataValue, -0.52, -5, 0, -1.0000000000000002E-14, -2.4000000000000002E-14, -2.6750000000000002E-12, 1.0000000000000002E-14, 2.4000000000000002E-14
DataValue, -0.5333, -5, 0, -1.09E-13, -1.8000000000000002E-14, -2.6210000000000002E-12, 1.09E-13, 1.8000000000000002E-14
DataValue, -0.54670000000000007, -5, 0, -2.7000000000000002E-14, -8E-15, -9.5000000000000012E-14, 2.7000000000000002E-14, 8E-15
DataValue, -0.56, -5, 0, -7.9E-14, -6.8E-14, 2.3760000000000004E-12, 7.9E-14, 6.8E-14
DataValue, -0.5733, -5, 0, -9.2000000000000012E-14, -1.1100000000000001E-13, 2.679E-12, 9.2000000000000012E-14, 1.1100000000000001E-13
DataValue, -0.5867, -5, 0, 5.700000000000001E-14, -7.7E-14, 7.6700000000000006E-13, 5.700000000000001E-14, 7.7E-14
DataValue, -0.6, -5, 0, -8.3000000000000012E-14, -3.1E-14, -1.8570000000000003E-12, 8.3000000000000012E-14, 3.1E-14
DataValue, -0.61330000000000007, -5, 0, -1.8000000000000002E-14, -3.4E-14, -2.9020000000000004E-12, 1.8000000000000002E-14, 3.4E-14
DataValue, -0.6267, -5, 0, -1.12E-13, 5.5000000000000005E-14, -1.6540000000000002E-12, 1.12E-13, 5.5000000000000005E-14
DataValue, -0.64, -5, 0, -1.5000000000000002E-14, -5.700000000000001E-14, 1.082E-12, 1.5000000000000002E-14, 5.700000000000001E-14
DataValue, -0.6533, -5, 0, -3.3000000000000005E-14, -2.8E-14, 2.862E-12, 3.3000000000000005E-14, 2.8E-14
DataValue, -0.66670000000000007, -5, 0, -5.9E-14, -1.2100000000000002E-13, 2.067E-12, 5.9E-14, 1.2100000000000002E-13
DataValue, -0.68, -5, 0, -6.4E-14, -1.0500000000000001E-13, -4.97E-13, 6.4E-14, 1.0500000000000001E-13
DataValue, -0.6933, -5, 0, -4.5000000000000004E-14, -6.0000000000000005E-15, -2.644E-12, 4.5000000000000004E-14, 6.0000000000000005E-15
DataValue, -0.7067, -5, 0, -9.4E-14, 2.7000000000000002E-14, -2.661E-12, 9.4E-14, 2.7000000000000002E-14
DataValue, -0.72000000000000008, -5, 0, 4.8000000000000004E-14, -6.0000000000000005E-15, -3.76E-13, 4.8000000000000004E-14, 6.0000000000000005E-15
DataValue, -0.73330000000000006, -5, 0, 3.3000000000000005E-14, -8.1000000000000008E-14, 2.0610000000000002E-12, 3.3000000000000005E-14, 8.1000000000000008E-14
DataValue, -0.7467, -5, 0, -2E-15, -1.0700000000000001E-13, 2.8010000000000003E-12, 2E-15, 1.0700000000000001E-13
DataValue, -0.76, -5, 0, -5.9E-14, -1.0800000000000001E-13, 1.086E-12, 5.9E-14, 1.0800000000000001E-13
DataValue, -0.7733, -5, 0, -5.4000000000000003E-14, -7.6E-14, -1.5780000000000001E-12, 5.4000000000000003E-14, 7.6E-14
DataValue, -0.78670000000000007, -5, 0, 9.0000000000000011E-15, -4.5000000000000004E-14, -2.878E-12, 9.0000000000000011E-15, 4.5000000000000004E-14
DataValue, -0.8, -5, 0, -5.3E-14, -1E-15, -1.885E-12, 5.3E-14, 1E-15
DataValue, -0.8133, -5, 0, -2.6000000000000003E-14, -1.7E-14, 8.02E-13, 2.6000000000000003E-14, 1.7E-14
DataValue, -0.8267, -5, 0, -6.7E-14, -6.4E-14, 2.8770000000000004E-12, 6.7E-14, 6.4E-14
DataValue, -0.84000000000000008, -5, 0, -3.3000000000000005E-14, -1.0800000000000001E-13, 2.3290000000000003E-12, 3.3000000000000005E-14, 1.0800000000000001E-13
DataValue, -0.85330000000000006, -5, 0, -3.0000000000000005E-14, -8.0000000000000013E-14, -1.52E-13, 3.0000000000000005E-14, 8.0000000000000013E-14
DataValue, -0.8667, -5, 0, -3.4E-14, -3.9000000000000004E-14, -2.6090000000000003E-12, 3.4E-14, 3.9000000000000004E-14
DataValue, -0.88, -5, 0, -7.9E-14, -1.3000000000000001E-14, -2.669E-12, 7.9E-14, 1.3000000000000001E-14
DataValue, -0.89330000000000009, -5, 0, -6.0000000000000009E-14, -3.9000000000000004E-14, -3.75E-13, 6.0000000000000009E-14, 3.9000000000000004E-14
DataValue, -0.90670000000000006, -5, 0, -1.4E-14, -7.6E-14, 2.092E-12, 1.4E-14, 7.6E-14
DataValue, -0.92, -5, 0, 3.0000000000000005E-14, -8.3000000000000012E-14, 2.849E-12, 3.0000000000000005E-14, 8.3000000000000012E-14
DataValue, -0.9333, -5, 0, 3.9000000000000004E-14, -1.34E-13, 1.1000000000000002E-12, 3.9000000000000004E-14, 1.34E-13
DataValue, -0.9467000000000001, -5, 0, -2.9E-14, -5.1000000000000004E-14, -1.558E-12, 2.9E-14, 5.1000000000000004E-14
DataValue, -0.96000000000000008, -5, 0, -3.6000000000000004E-14, 5.700000000000001E-14, -2.879E-12, 3.6000000000000004E-14, 5.700000000000001E-14
DataValue, -0.9733, -5, 0, -7.9E-14, -4E-15, -2.0280000000000002E-12, 7.9E-14, 4E-15
DataValue, -0.9867, -5, 0, 0, -3.3000000000000005E-14, 6.4500000000000008E-13, 0, 3.3000000000000005E-14
DataValue, -1, -5, 0, -9.0000000000000011E-15, -4.8000000000000004E-14, 2.7050000000000003E-12, 9.0000000000000011E-15, 4.8000000000000004E-14
DataValue, -1.0133, -5, 0, -6.5E-14, -1.59E-13, 2.4470000000000004E-12, 6.5E-14, 1.59E-13
DataValue, -1.0267, -5, 0, -9.3000000000000008E-14, -4.7E-14, 7.2000000000000009E-14, 9.3000000000000008E-14, 4.7E-14
DataValue, -1.04, -5, 0, -3.3000000000000005E-14, -1.1E-14, -2.5010000000000003E-12, 3.3000000000000005E-14, 1.1E-14
DataValue, -1.0533000000000001, -5, 0, -2.6000000000000003E-14, -2.3000000000000003E-14, -2.766E-12, 2.6000000000000003E-14, 2.3000000000000003E-14
DataValue, -1.0667, -5, 0, -4.1E-14, 9.0000000000000011E-15, -8.2800000000000011E-13, 4.1E-14, 9.0000000000000011E-15
DataValue, -1.08, -5, 0, 4.3000000000000006E-14, -4.3000000000000006E-14, 1.95E-12, 4.3000000000000006E-14, 4.3000000000000006E-14
DataValue, -1.0933000000000002, -5, 0, -8.5E-14, -8.0000000000000013E-14, 2.8690000000000004E-12, 8.5E-14, 8.0000000000000013E-14
DataValue, -1.1067, -5, 0, 1.1E-14, -1.1100000000000001E-13, 1.3130000000000002E-12, 1.1E-14, 1.1100000000000001E-13
DataValue, -1.12, -5, 0, -7.8000000000000008E-14, -6.2E-14, -1.4720000000000002E-12, 7.8000000000000008E-14, 6.2E-14
DataValue, -1.1333, -5, 0, -3.7E-14, -2.7000000000000002E-14, -2.962E-12, 3.7E-14, 2.7000000000000002E-14
DataValue, -1.1467, -5, 0, -6.6000000000000009E-14, -1.5000000000000002E-14, -1.873E-12, 6.6000000000000009E-14, 1.5000000000000002E-14
DataValue, -1.1600000000000001, -5, 0, -4.0000000000000006E-14, -7E-14, 8.0300000000000011E-13, 4.0000000000000006E-14, 7E-14
DataValue, -1.1733, -5, 0, -3.7E-14, -7.7E-14, 2.7840000000000003E-12, 3.7E-14, 7.7E-14
DataValue, -1.1867, -5, 0, 6.0000000000000005E-15, -1.16E-13, 2.3840000000000003E-12, 6.0000000000000005E-15, 1.16E-13
DataValue, -1.2, -5, 0, 2.4000000000000002E-14, -6.5E-14, -2.49E-13, 2.4000000000000002E-14, 6.5E-14
DataValue, -1.2133, -5, 0, -2.7000000000000002E-14, -3.5E-14, -2.5470000000000004E-12, 2.7000000000000002E-14, 3.5E-14
DataValue, -1.2267000000000001, -5, 0, -1.0400000000000001E-13, -2.5E-14, -2.6840000000000003E-12, 1.0400000000000001E-13, 2.5E-14
DataValue, -1.24, -5, 0, 2.3000000000000003E-14, -5.5000000000000005E-14, -4.0200000000000005E-13, 2.3000000000000003E-14, 5.5000000000000005E-14
DataValue, -1.2533, -5, 0, -2.7000000000000002E-14, -4.0000000000000006E-14, 2.0160000000000003E-12, 2.7000000000000002E-14, 4.0000000000000006E-14
DataValue, -1.2667000000000002, -5, 0, -1.9E-14, -1.52E-13, 2.7800000000000003E-12, 1.9E-14, 1.52E-13
DataValue, -1.28, -5, 0, -4.7E-14, -5E-14, 1.1750000000000001E-12, 4.7E-14, 5E-14
DataValue, -1.2933000000000001, -5, 0, -7.8000000000000008E-14, -8.3000000000000012E-14, -1.588E-12, 7.8000000000000008E-14, 8.3000000000000012E-14
DataValue, -1.3067, -5, 0, -1.3000000000000001E-14, 1E-15, -2.9220000000000003E-12, 1.3000000000000001E-14, 1E-15
DataValue, -1.32, -5, 0, -4.4E-14, 3.2E-14, -1.8320000000000003E-12, 4.4E-14, 3.2E-14
DataValue, -1.3333000000000002, -5, 0, 3.3000000000000005E-14, -5.2000000000000006E-14, 8.2800000000000011E-13, 3.3000000000000005E-14, 5.2000000000000006E-14
DataValue, -1.3467, -5, 0, -2.9E-14, -5.3E-14, 2.825E-12, 2.9E-14, 5.3E-14
DataValue, -1.36, -5, 0, -3.7E-14, -7.4E-14, 2.299E-12, 3.7E-14, 7.4E-14
DataValue, -1.3733, -5, 0, -2.8E-14, -1.18E-13, -3.42E-13, 2.8E-14, 1.18E-13
DataValue, -1.3867, -5, 0, -4.1E-14, -1.2000000000000001E-14, -2.653E-12, 4.1E-14, 1.2000000000000001E-14
DataValue, -1.4000000000000001, -5, 0, 3.0000000000000002E-15, -2.2E-14, -2.6130000000000003E-12, 3.0000000000000002E-15, 2.2E-14
DataValue, -1.4133, -5, 0, -8.6000000000000012E-14, -1.4E-14, -2.79E-13, 8.6000000000000012E-14, 1.4E-14
DataValue, -1.4267, -5, 0, 3.5E-14, -6.5E-14, 2.205E-12, 3.5E-14, 6.5E-14
DataValue, -1.4400000000000002, -5, 0, -9.0000000000000011E-15, -9.9000000000000007E-14, 2.8300000000000003E-12, 9.0000000000000011E-15, 9.9000000000000007E-14
DataValue, -1.4533, -5, 0, -1.1E-14, -6.4E-14, 1.0350000000000001E-12, 1.1E-14, 6.4E-14
DataValue, -1.4667000000000001, -5, 0, -4.2000000000000004E-14, -5.6E-14, -1.6580000000000002E-12, 4.2000000000000004E-14, 5.6E-14
DataValue, -1.48, -5, 0, -4.4E-14, -1.0000000000000002E-14, -2.874E-12, 4.4E-14, 1.0000000000000002E-14
DataValue, -1.4933, -5, 0, -1.0100000000000001E-13, -3.0000000000000005E-14, -1.7560000000000002E-12, 1.0100000000000001E-13, 3.0000000000000005E-14
