
SetupTitle, Id-Vd_pFET
PrimitiveTest, I/V Sweep
TestParameter, Context.MainFrame, B1500A
TestParameter, Channel.UnitType, SMU, SMU, SMU
TestParameter, Channel.Unit, SMU1:HR/AS, SMU4:HR/AS, SMU6:MP
TestParameter, Channel.IName, Id, Is, Ig
TestParameter, Channel.VName, Vd, Vs, Vg
TestParameter, Channel.Mode, V, V, V
TestParameter, Channel.Func, VAR1, CONST, VAR2
TestParameter, Channel.Index, 
TestParameter, Channel.Time, 
TestParameter, Measurement.Port.Unit, SMU1:HR/AS, SMU4:HR/AS, SMU6:MP
TestParameter, Measurement.Port.SeriesResistor, NONE, NONE, NONE
TestParameter, Measurement.Port.Filter, ON, ON, ON
TestParameter, Measurement.Port.OutputVoltageComparison, 0, 0, 0
TestParameter, Measurement.Primary.Locus, Single
TestParameter, Measurement.Primary.Scale, LINEAR
TestParameter, Measurement.Primary.Start, 0
TestParameter, Measurement.Primary.Stop, 2
TestParameter, Measurement.Primary.Step, 0.013300000000000001
TestParameter, Measurement.Primary.Compliance, 1E-05
TestParameter, Measurement.Primary.PowerCompliance, 0
TestParameter, Measurement.Aborting.Condition, CONTINUE AT ANY
TestParameter, Measurement.PostOutput.Value, START
TestParameter, Measurement.PostOutput.Retention, OFF
TestParameter, Measurement.Secondary.Start, 5
TestParameter, Measurement.Secondary.Count, 8
TestParameter, Measurement.Secondary.Step, 5
TestParameter, Measurement.Secondary.Compliance, 1E-05
TestParameter, Measurement.Secondary.PowerCompliance, 0
TestParameter, Measurement.Bias.Source, 0, 0, 5
TestParameter, Measurement.Bias.Compliance, 1E-05, 1E-05, 1E-05
TestParameter, Measurement.Monitor.Unit, SMU1:HR/AS, SMU4:HR/AS, SMU6:MP
TestParameter, Measurement.Monitor.Adc, HR ADC, HR ADC, HR ADC
TestParameter, Measurement.Monitor.Measurement, Compliance Side, Compliance Side, Compliance Side
TestParameter, Measurement.Monitor.RangingMode, LIMITED, LIMITED, LIMITED
TestParameter, Measurement.Monitor.RangeBoundary, 1nA, 1nA, 1nA
TestParameter, Measurement.Monitor.RangeRating, BY FULL RANGE, BY FULL RANGE, BY FULL RANGE
TestParameter, Measurement.Monitor.RangeRatingCoeff, 50, 50, 50
TestParameter, Measurement.Timing.Hold, 1
TestParameter, Measurement.Timing.Delay, 0
TestParameter, Measurement.Adc.HighSpeed.Mode, AUTO
TestParameter, Measurement.Adc.HighSpeed.Coeff, 1
TestParameter, Measurement.Adc.HighResolution.AutoZero, OFF
TestParameter, Measurement.Adc.HighResolution.Mode, AUTO
TestParameter, Measurement.Adc.HighResolution.Coeff, 127
TestParameter, Measurement.WaitTime.Source.Coeff, 1
TestParameter, Measurement.WaitTime.Source.Offset, 0
TestParameter, Measurement.WaitTime.Monitor.Coeff, 1
TestParameter, Measurement.WaitTime.Monitor.Offset, 0
TestParameter, Function.User.Name, AbsId, AbsIs
TestParameter, Function.User.Unit, A, A
TestParameter, Function.User.Definition, abs(Id), abs(Is)
TestParameter, Output.Graph.Enabled, true
TestParameter, Output.Graph.AutoScaling, false
TestParameter, Output.Graph.XAxis.Data, Vd
TestParameter, Output.Graph.XAxis.Scale, Linear
TestParameter, Output.Graph.XAxis.Left, 0.5
TestParameter, Output.Graph.XAxis.Right, -1
TestParameter, Output.Graph.XAxis.RunTimeAutoScale, false
TestParameter, Output.Graph.YAxis.Data, AbsId, AbsIs
TestParameter, Output.Graph.YAxis.Scale, Linear, Linear
TestParameter, Output.Graph.YAxis.Bottom, 0, 0
TestParameter, Output.Graph.YAxis.Top, 1, 1
TestParameter, Output.Graph.YAxis.Group, Group 1, Group 1
TestParameter, Output.Graph.YAxis.RunTimeAutoScale, true, true
TestParameter, Output.List.Data, Vd, Id, Is, Vg, Ig, Vs, AbsId, AbsIs
TestParameter, AutoAnalysis.Interpolation, false
TestParameter, AutoAnalysis.Line1.Enabled, false
TestParameter, AutoAnalysis.Line1.Type, 1
TestParameter, AutoAnalysis.Line1.Fix, True
TestParameter, AutoAnalysis.Line1.YAxis, 0
TestParameter, AutoAnalysis.Line1.Point1.Type, 0
TestParameter, AutoAnalysis.Line1.Point1.XY.X, 
TestParameter, AutoAnalysis.Line1.Point1.XY.Y, 
TestParameter, AutoAnalysis.Line1.Point1.Data.Var, 
TestParameter, AutoAnalysis.Line1.Point1.Data.Condition, 
TestParameter, AutoAnalysis.Line1.Point1.Data.Start, false
TestParameter, AutoAnalysis.Line1.Point1.Data.StartVar, 
TestParameter, AutoAnalysis.Line1.Point1.Data.StartCondition, 
TestParameter, AutoAnalysis.Line1.Point2.Type, 0
TestParameter, AutoAnalysis.Line1.Point2.XY.X, 
TestParameter, AutoAnalysis.Line1.Point2.XY.Y, 
TestParameter, AutoAnalysis.Line1.Point2.Data.Var, 
TestParameter, AutoAnalysis.Line1.Point2.Data.Condition, 
TestParameter, AutoAnalysis.Line1.Point2.Data.Start, false
TestParameter, AutoAnalysis.Line1.Point2.Data.StartVar, 
TestParameter, AutoAnalysis.Line1.Point2.Data.StartCondition, 
TestParameter, AutoAnalysis.Line1.GradientExpr, 0
TestParameter, AutoAnalysis.Line2.Enabled, false
TestParameter, AutoAnalysis.Line2.Type, 1
TestParameter, AutoAnalysis.Line2.Fix, True
TestParameter, AutoAnalysis.Line2.YAxis, 0
TestParameter, AutoAnalysis.Line2.Point1.Type, 0
TestParameter, AutoAnalysis.Line2.Point1.XY.X, 
TestParameter, AutoAnalysis.Line2.Point1.XY.Y, 
TestParameter, AutoAnalysis.Line2.Point1.Data.Var, 
TestParameter, AutoAnalysis.Line2.Point1.Data.Condition, 
TestParameter, AutoAnalysis.Line2.Point1.Data.Start, false
TestParameter, AutoAnalysis.Line2.Point1.Data.StartVar, 
TestParameter, AutoAnalysis.Line2.Point1.Data.StartCondition, 
TestParameter, AutoAnalysis.Line2.Point2.Type, 0
TestParameter, AutoAnalysis.Line2.Point2.XY.X, 
TestParameter, AutoAnalysis.Line2.Point2.XY.Y, 
TestParameter, AutoAnalysis.Line2.Point2.Data.Var, 
TestParameter, AutoAnalysis.Line2.Point2.Data.Condition, 
TestParameter, AutoAnalysis.Line2.Point2.Data.Start, false
TestParameter, AutoAnalysis.Line2.Point2.Data.StartVar, 
TestParameter, AutoAnalysis.Line2.Point2.Data.StartCondition, 
TestParameter, AutoAnalysis.Line2.GradientExpr, 0
TestParameter, AutoAnalysis.Marker.Enabled, false
TestParameter, AutoAnalysis.Marker.Data.Var, 
TestParameter, AutoAnalysis.Marker.Data.Condition, 
TestParameter, AutoAnalysis.Marker.Data.Start, false
TestParameter, AutoAnalysis.Marker.Data.StartVar, 
TestParameter, AutoAnalysis.Marker.Data.StartCondition, 
MetaData, TestRecord.EntryPoint, true
MetaData, TestRecord.RecordTime, 10/23/2019 09:11:42
MetaData, TestRecord.TestTarget, .3um-3
MetaData, TestRecord.IterationIndex, 6
MetaData, TestRecord.Preservation, true
MetaData, TestRecord.Flag, 
MetaData, TestRecord.Remarks, 
MetaData, TestRecord.LinkKey, 605c5d0f-ea0b-49f0-a8f8-85b3aaa886e5
Dimension1, 151, 151, 151, 151, 151, 151, 151, 151
Dimension2, 8, 8, 8, 8, 8, 8, 8, 8
DataName, Vd, Vg, Vs, Id, Is, Ig, AbsId, AbsIs
DataValue, 0, 5, 0, -3.74E-13, -2.0700000000000003E-13, 1.1157E-11, 3.74E-13, 2.0700000000000003E-13
DataValue, 0.013300000000000001, 5, 0, -3.5900000000000004E-13, -3.1100000000000004E-13, 1.0136000000000001E-11, 3.5900000000000004E-13, 3.1100000000000004E-13
DataValue, 0.0267, 5, 0, -2.7400000000000004E-13, -2.0400000000000001E-13, 5.713E-12, 2.7400000000000004E-13, 2.0400000000000001E-13
DataValue, 0.04, 5, 0, -2.9800000000000004E-13, -1.9000000000000002E-13, 1.2717000000000001E-11, 2.9800000000000004E-13, 1.9000000000000002E-13
DataValue, 0.0533, 5, 0, -2.9000000000000003E-13, -2.58E-13, 1.1512E-11, 2.9000000000000003E-13, 2.58E-13
DataValue, 0.066700000000000009, 5, 0, -1.9600000000000002E-13, -3.17E-13, 9.5130000000000012E-12, 1.9600000000000002E-13, 3.17E-13
DataValue, 0.08, 5, 0, -2E-13, -3.28E-13, 7.2660000000000007E-12, 2E-13, 3.28E-13
DataValue, 0.093300000000000008, 5, 0, -1.52E-13, -2.7E-13, 6.0180000000000004E-12, 1.52E-13, 2.7E-13
DataValue, 0.1067, 5, 0, -2.11E-13, -1.8000000000000002E-13, 4.757E-12, 2.11E-13, 1.8000000000000002E-13
DataValue, 0.12000000000000001, 5, 0, -1.6600000000000003E-13, -1.0400000000000001E-13, 3.733E-12, 1.6600000000000003E-13, 1.0400000000000001E-13
DataValue, 0.1333, 5, 0, -1.48E-13, -1.4E-13, 4.583E-12, 1.48E-13, 1.4E-13
DataValue, 0.1467, 5, 0, -1.0100000000000001E-13, -1.77E-13, 4.2640000000000004E-12, 1.0100000000000001E-13, 1.77E-13
DataValue, 0.16, 5, 0, -8.9000000000000012E-14, -2.06E-13, 3.8010000000000005E-12, 8.9000000000000012E-14, 2.06E-13
DataValue, 0.1733, 5, 0, -7.3E-14, -2.2200000000000001E-13, 3.2030000000000004E-12, 7.3E-14, 2.2200000000000001E-13
DataValue, 0.1867, 5, 0, -1.19E-13, -1.9500000000000003E-13, 3.5020000000000002E-12, 1.19E-13, 1.9500000000000003E-13
DataValue, 0.2, 5, 0, -3.7E-14, -1.8600000000000002E-13, 4.4690000000000004E-12, 3.7E-14, 1.8600000000000002E-13
DataValue, 0.21330000000000002, 5, 0, -2.6200000000000004E-13, -1.1100000000000001E-13, 2.9140000000000003E-12, 2.6200000000000004E-13, 1.1100000000000001E-13
DataValue, 0.2267, 5, 0, -8.5E-14, -1.4300000000000002E-13, 2.9140000000000003E-12, 8.5E-14, 1.4300000000000002E-13
DataValue, 0.24000000000000002, 5, 0, -3.8E-14, -1.9700000000000002E-13, 3.0780000000000004E-12, 3.8E-14, 1.9700000000000002E-13
DataValue, 0.2533, 5, 0, -1.5000000000000002E-14, -2.6600000000000003E-13, 3.967E-12, 1.5000000000000002E-14, 2.6600000000000003E-13
DataValue, 0.2667, 5, 0, -1.35E-13, -2.1000000000000001E-13, 3.2950000000000004E-12, 1.35E-13, 2.1000000000000001E-13
DataValue, 0.28, 5, 0, -7.6E-14, -1.47E-13, 2.3450000000000002E-12, 7.6E-14, 1.47E-13
DataValue, 0.2933, 5, 0, -1E-13, -1.42E-13, 2.3630000000000003E-12, 1E-13, 1.42E-13
DataValue, 0.30670000000000003, 5, 0, -8.3000000000000012E-14, -7.6E-14, 2.1700000000000002E-12, 8.3000000000000012E-14, 7.6E-14
DataValue, 0.32, 5, 0, -9.0000000000000008E-14, -1.47E-13, 1.973E-12, 9.0000000000000008E-14, 1.47E-13
DataValue, 0.33330000000000004, 5, 0, 2.8E-14, -2.3000000000000003E-13, 2.2620000000000003E-12, 2.8E-14, 2.3000000000000003E-13
DataValue, 0.3467, 5, 0, 4E-15, -2.59E-13, 1.856E-12, 4E-15, 2.59E-13
DataValue, 0.36000000000000004, 5, 0, -1.0400000000000001E-13, -1.63E-13, 1.9330000000000003E-12, 1.0400000000000001E-13, 1.63E-13
DataValue, 0.3733, 5, 0, -2.2E-14, -1.3700000000000002E-13, 1.575E-12, 2.2E-14, 1.3700000000000002E-13
DataValue, 0.38670000000000004, 5, 0, -8.4000000000000008E-14, -1.3E-13, 1.5640000000000002E-12, 8.4000000000000008E-14, 1.3E-13
DataValue, 0.4, 5, 0, -6.4E-14, -1.75E-13, 1.834E-12, 6.4E-14, 1.75E-13
DataValue, 0.4133, 5, 0, -6.4E-14, -2.18E-13, 1.998E-12, 6.4E-14, 2.18E-13
DataValue, 0.4267, 5, 0, -1.5000000000000002E-14, -2.8800000000000004E-13, 2.7140000000000004E-12, 1.5000000000000002E-14, 2.8800000000000004E-13
DataValue, 0.44, 5, 0, 4.9000000000000006E-14, -2.3100000000000003E-13, 2.47E-12, 4.9000000000000006E-14, 2.3100000000000003E-13
DataValue, 0.45330000000000004, 5, 0, -4.3000000000000006E-14, -1.9000000000000002E-13, 2.5580000000000002E-12, 4.3000000000000006E-14, 1.9000000000000002E-13
DataValue, 0.4667, 5, 0, -7.7E-14, -1.6100000000000002E-13, 2.481E-12, 7.7E-14, 1.6100000000000002E-13
DataValue, 0.48000000000000004, 5, 0, -1.3000000000000001E-14, -1.3E-13, 2.4170000000000003E-12, 1.3000000000000001E-14, 1.3E-13
DataValue, 0.4933, 5, 0, -8E-15, -2.0900000000000002E-13, 1.579E-12, 8E-15, 2.0900000000000002E-13
DataValue, 0.5067, 5, 0, 8.2E-14, -2.35E-13, 1.6490000000000001E-12, 8.2E-14, 2.35E-13
DataValue, 0.52, 5, 0, 6.8E-14, -3.0900000000000005E-13, 1.5990000000000002E-12, 6.8E-14, 3.0900000000000005E-13
DataValue, 0.5333, 5, 0, 2.2E-14, -1.9700000000000002E-13, 1.5680000000000002E-12, 2.2E-14, 1.9700000000000002E-13
DataValue, 0.54670000000000007, 5, 0, 1.9E-14, -2.0100000000000003E-13, 1.4260000000000002E-12, 1.9E-14, 2.0100000000000003E-13
DataValue, 0.56, 5, 0, -7.9E-14, -1.34E-13, 1.4280000000000002E-12, 7.9E-14, 1.34E-13
DataValue, 0.5733, 5, 0, 1.6E-14, -1.7400000000000002E-13, 1.6910000000000002E-12, 1.6E-14, 1.7400000000000002E-13
DataValue, 0.5867, 5, 0, 2.3000000000000003E-14, -2.8600000000000004E-13, 1.26E-12, 2.3000000000000003E-14, 2.8600000000000004E-13
DataValue, 0.6, 5, 0, 2.1000000000000002E-14, -2.2600000000000002E-13, 1.162E-12, 2.1000000000000002E-14, 2.2600000000000002E-13
DataValue, 0.61330000000000007, 5, 0, 6.3000000000000009E-14, -2.59E-13, 1.0940000000000002E-12, 6.3000000000000009E-14, 2.59E-13
DataValue, 0.6267, 5, 0, 7E-15, -2.5200000000000004E-13, 1.218E-12, 7E-15, 2.5200000000000004E-13
DataValue, 0.64, 5, 0, 3.2E-14, -1.65E-13, 1.1370000000000001E-12, 3.2E-14, 1.65E-13
DataValue, 0.6533, 5, 0, 8E-15, -1.9800000000000002E-13, 1.197E-12, 8E-15, 1.9800000000000002E-13
DataValue, 0.66670000000000007, 5, 0, 9.3000000000000008E-14, -2.47E-13, 1.101E-12, 9.3000000000000008E-14, 2.47E-13
DataValue, 0.68, 5, 0, 9.4E-14, -3.05E-13, 1.138E-12, 9.4E-14, 3.05E-13
DataValue, 0.6933, 5, 0, 9.8000000000000012E-14, -3.3300000000000005E-13, 1.237E-12, 9.8000000000000012E-14, 3.3300000000000005E-13
DataValue, 0.7067, 5, 0, 4.5000000000000004E-14, -2.84E-13, 1.1750000000000001E-12, 4.5000000000000004E-14, 2.84E-13
DataValue, 0.72000000000000008, 5, 0, 9.4E-14, -2.1500000000000002E-13, 1.095E-12, 9.4E-14, 2.1500000000000002E-13
DataValue, 0.73330000000000006, 5, 0, 2.8E-14, -1.9600000000000002E-13, 1.074E-12, 2.8E-14, 1.9600000000000002E-13
DataValue, 0.7467, 5, 0, 6.1E-14, -1.59E-13, 9.76E-13, 6.1E-14, 1.59E-13
DataValue, 0.76, 5, 0, 9.6000000000000007E-14, -3.03E-13, 1.069E-12, 9.6000000000000007E-14, 3.03E-13
DataValue, 0.7733, 5, 0, 1.5000000000000002E-13, -3.4800000000000003E-13, 9.0900000000000006E-13, 1.5000000000000002E-13, 3.4800000000000003E-13
DataValue, 0.78670000000000007, 5, 0, 1.1500000000000002E-13, -3.66E-13, 9.9100000000000012E-13, 1.1500000000000002E-13, 3.66E-13
DataValue, 0.8, 5, 0, 8.2E-14, -2.6E-13, 1.0620000000000001E-12, 8.2E-14, 2.6E-13
DataValue, 0.8133, 5, 0, 5.3E-14, -1.8500000000000002E-13, 9.6400000000000013E-13, 5.3E-14, 1.8500000000000002E-13
DataValue, 0.8267, 5, 0, 7.6E-14, -2.81E-13, 9.240000000000001E-13, 7.6E-14, 2.81E-13
DataValue, 0.84000000000000008, 5, 0, 1.1100000000000001E-13, -2.72E-13, 1.2540000000000001E-12, 1.1100000000000001E-13, 2.72E-13
DataValue, 0.85330000000000006, 5, 0, 1.6100000000000002E-13, -3.8200000000000004E-13, 9.9300000000000011E-13, 1.6100000000000002E-13, 3.8200000000000004E-13
DataValue, 0.8667, 5, 0, 2.71E-13, -4.11E-13, 1.1270000000000002E-12, 2.71E-13, 4.11E-13
DataValue, 0.88, 5, 0, 1.47E-13, -3.5600000000000005E-13, 8.6000000000000007E-13, 1.47E-13, 3.5600000000000005E-13
DataValue, 0.89330000000000009, 5, 0, 1.4900000000000002E-13, -2.84E-13, 6.9800000000000006E-13, 1.4900000000000002E-13, 2.84E-13
DataValue, 0.90670000000000006, 5, 0, 9.1E-14, -2.8E-13, 7.1500000000000008E-13, 9.1E-14, 2.8E-13
DataValue, 0.92, 5, 0, 1.7200000000000002E-13, -2.9700000000000005E-13, 8.92E-13, 1.7200000000000002E-13, 2.9700000000000005E-13
DataValue, 0.9333, 5, 0, 1.6800000000000002E-13, -3.18E-13, 8.9700000000000012E-13, 1.6800000000000002E-13, 3.18E-13
DataValue, 0.9467000000000001, 5, 0, 2.8700000000000004E-13, -4.2700000000000005E-13, 7.6400000000000008E-13, 2.8700000000000004E-13, 4.2700000000000005E-13
DataValue, 0.96000000000000008, 5, 0, 1.99E-13, -3.97E-13, 6.33E-13, 1.99E-13, 3.97E-13
DataValue, 0.9733, 5, 0, 1.57E-13, -3.8400000000000003E-13, 1.2020000000000001E-12, 1.57E-13, 3.8400000000000003E-13
DataValue, 0.9867, 5, 0, 1.0800000000000001E-13, -3.2100000000000005E-13, 7.05E-13, 1.0800000000000001E-13, 3.2100000000000005E-13
DataValue, 1, 5, 0, 1.53E-13, -3.42E-13, 5.45E-13, 1.53E-13, 3.42E-13
DataValue, 1.0133, 5, 0, 2.32E-13, -3.8100000000000004E-13, 4.77E-13, 2.32E-13, 3.8100000000000004E-13
DataValue, 1.0267, 5, 0, 3.39E-13, -4.1900000000000003E-13, 6.13E-13, 3.39E-13, 4.1900000000000003E-13
DataValue, 1.04, 5, 0, 1.88E-13, -4.94E-13, 6.7300000000000006E-13, 1.88E-13, 4.94E-13
DataValue, 1.0533000000000001, 5, 0, 2.72E-13, -4.36E-13, 6.880000000000001E-13, 2.72E-13, 4.36E-13
DataValue, 1.0667, 5, 0, 3.4E-13, -3.7200000000000003E-13, 7.2100000000000006E-13, 3.4E-13, 3.7200000000000003E-13
DataValue, 1.08, 5, 0, 1.8500000000000002E-13, -3.05E-13, 6.12E-13, 1.8500000000000002E-13, 3.05E-13
DataValue, 1.0933000000000002, 5, 0, 2.23E-13, -2.8900000000000003E-13, 4.8200000000000007E-13, 2.23E-13, 2.8900000000000003E-13
DataValue, 1.1067, 5, 0, 2.4000000000000004E-13, -4.0500000000000004E-13, 4.2900000000000004E-13, 2.4000000000000004E-13, 4.0500000000000004E-13
DataValue, 1.12, 5, 0, 3.89E-13, -4.6200000000000005E-13, 5.0800000000000006E-13, 3.89E-13, 4.6200000000000005E-13
DataValue, 1.1333, 5, 0, 3.8500000000000003E-13, -4.7900000000000008E-13, 5.5400000000000006E-13, 3.8500000000000003E-13, 4.7900000000000008E-13
DataValue, 1.1467, 5, 0, 1.8500000000000002E-13, -3.53E-13, 2.1400000000000002E-13, 1.8500000000000002E-13, 3.53E-13
DataValue, 1.1600000000000001, 5, 0, 2.5200000000000004E-13, -3.5800000000000004E-13, 3.9300000000000004E-13, 2.5200000000000004E-13, 3.5800000000000004E-13
DataValue, 1.1733, 5, 0, 1.09E-13, -3.28E-13, 3.3600000000000003E-13, 1.09E-13, 3.28E-13
DataValue, 1.1867, 5, 0, 2.45E-13, -4.5300000000000004E-13, 4.3700000000000006E-13, 2.45E-13, 4.5300000000000004E-13
DataValue, 1.2, 5, 0, 3.41E-13, -4.66E-13, 3.54E-13, 3.41E-13, 4.66E-13
DataValue, 1.2133, 5, 0, 3.1200000000000003E-13, -4.67E-13, 1.24E-13, 3.1200000000000003E-13, 4.67E-13
DataValue, 1.2267000000000001, 5, 0, 3.2200000000000004E-13, -4.87E-13, 2.6E-13, 3.2200000000000004E-13, 4.87E-13
DataValue, 1.24, 5, 0, 2.6600000000000003E-13, -3.87E-13, 1.7200000000000002E-13, 2.6600000000000003E-13, 3.87E-13
DataValue, 1.2533, 5, 0, 2.93E-13, -3.8100000000000004E-13, 1.2000000000000002E-13, 2.93E-13, 3.8100000000000004E-13
DataValue, 1.2667000000000002, 5, 0, 4.3000000000000004E-13, -4.4200000000000004E-13, 2.3900000000000004E-13, 4.3000000000000004E-13, 4.4200000000000004E-13
DataValue, 1.28, 5, 0, 2.6500000000000003E-13, -4.4000000000000004E-13, 1.7300000000000002E-13, 2.6500000000000003E-13, 4.4000000000000004E-13
DataValue, 1.2933000000000001, 5, 0, 4.1E-13, -5.14E-13, 2E-13, 4.1E-13, 5.14E-13
DataValue, 1.3067, 5, 0, 3.4800000000000003E-13, -5.3100000000000006E-13, 1.75E-13, 3.4800000000000003E-13, 5.3100000000000006E-13
DataValue, 1.32, 5, 0, 3.8500000000000003E-13, -5.2900000000000007E-13, 1.6000000000000003E-13, 3.8500000000000003E-13, 5.2900000000000007E-13
DataValue, 1.3333000000000002, 5, 0, 4.11E-13, -4.6200000000000005E-13, 1.3100000000000002E-13, 4.11E-13, 4.6200000000000005E-13
DataValue, 1.3467, 5, 0, 2.6200000000000004E-13, -3.9400000000000004E-13, 8.2E-14, 2.6200000000000004E-13, 3.9400000000000004E-13
DataValue, 1.36, 5, 0, 3.15E-13, -4.8500000000000005E-13, 1.25E-13, 3.15E-13, 4.8500000000000005E-13
DataValue, 1.3733, 5, 0, 3.7000000000000004E-13, -5.23E-13, 9.5000000000000012E-14, 3.7000000000000004E-13, 5.23E-13
DataValue, 1.3867, 5, 0, 4E-13, -5.4700000000000009E-13, 5.3E-14, 4E-13, 5.4700000000000009E-13
DataValue, 1.4000000000000001, 5, 0, 4.8300000000000006E-13, -5.5500000000000006E-13, 8.7000000000000008E-14, 4.8300000000000006E-13, 5.5500000000000006E-13
DataValue, 1.4133, 5, 0, 3.7900000000000005E-13, -5.7E-13, 1E-13, 3.7900000000000005E-13, 5.7E-13
DataValue, 1.4267, 5, 0, 3.9100000000000005E-13, -4.88E-13, 3.6000000000000004E-14, 3.9100000000000005E-13, 4.88E-13
DataValue, 1.4400000000000002, 5, 0, 3.64E-13, -5.14E-13, 6.9000000000000009E-14, 3.64E-13, 5.14E-13
DataValue, 1.4533, 5, 0, 4.63E-13, -5.5600000000000005E-13, 9.7E-14, 4.63E-13, 5.5600000000000005E-13
DataValue, 1.4667000000000001, 5, 0, 5.38E-13, -6.4700000000000007E-13, 9.6000000000000007E-14, 5.38E-13, 6.4700000000000007E-13
DataValue, 1.48, 5, 0, 5.5200000000000007E-13, -6.2700000000000005E-13, -1E-15, 5.5200000000000007E-13, 6.2700000000000005E-13
DataValue, 1.4933, 5, 0, 4.4100000000000004E-13, -5.92E-13, 2.3000000000000003E-14, 4.4100000000000004E-13, 5.92E-13
DataValue, 1.5067000000000002, 5, 0, 4.5600000000000008E-13, -5.7400000000000008E-13, 4.8000000000000004E-14, 4.5600000000000008E-13, 5.7400000000000008E-13
