
SetupTitle, Id-Vd_pFET
PrimitiveTest, I/V Sweep
TestParameter, Context.MainFrame, B1500A
TestParameter, Channel.UnitType, SMU, SMU, SMU
TestParameter, Channel.Unit, SMU1:HR/AS, SMU4:HR/AS, SMU6:MP
TestParameter, Channel.IName, Id, Is, Ig
TestParameter, Channel.VName, Vd, Vs, Vg
TestParameter, Channel.Mode, V, V, V
TestParameter, Channel.Func, VAR1, CONST, VAR2
TestParameter, Channel.Index, 
TestParameter, Channel.Time, 
TestParameter, Measurement.Port.Unit, SMU1:HR/AS, SMU4:HR/AS, SMU6:MP
TestParameter, Measurement.Port.SeriesResistor, NONE, NONE, NONE
TestParameter, Measurement.Port.Filter, ON, ON, ON
TestParameter, Measurement.Port.OutputVoltageComparison, 0, 0, 0
TestParameter, Measurement.Primary.Locus, Single
TestParameter, Measurement.Primary.Scale, LINEAR
TestParameter, Measurement.Primary.Start, 0
TestParameter, Measurement.Primary.Stop, -2
TestParameter, Measurement.Primary.Step, -0.013300000000000001
TestParameter, Measurement.Primary.Compliance, 1E-05
TestParameter, Measurement.Primary.PowerCompliance, 0
TestParameter, Measurement.Aborting.Condition, CONTINUE AT ANY
TestParameter, Measurement.PostOutput.Value, START
TestParameter, Measurement.PostOutput.Retention, OFF
TestParameter, Measurement.Secondary.Start, -5
TestParameter, Measurement.Secondary.Count, 8
TestParameter, Measurement.Secondary.Step, -5
TestParameter, Measurement.Secondary.Compliance, 1E-05
TestParameter, Measurement.Secondary.PowerCompliance, 0
TestParameter, Measurement.Bias.Source, 0, 0, -5
TestParameter, Measurement.Bias.Compliance, 1E-05, 1E-05, 1E-05
TestParameter, Measurement.Monitor.Unit, SMU1:HR/AS, SMU4:HR/AS, SMU6:MP
TestParameter, Measurement.Monitor.Adc, HR ADC, HR ADC, HR ADC
TestParameter, Measurement.Monitor.Measurement, Compliance Side, Compliance Side, Compliance Side
TestParameter, Measurement.Monitor.RangingMode, LIMITED, LIMITED, LIMITED
TestParameter, Measurement.Monitor.RangeBoundary, 1nA, 1nA, 1nA
TestParameter, Measurement.Monitor.RangeRating, BY FULL RANGE, BY FULL RANGE, BY FULL RANGE
TestParameter, Measurement.Monitor.RangeRatingCoeff, 50, 50, 50
TestParameter, Measurement.Timing.Hold, 1
TestParameter, Measurement.Timing.Delay, 0
TestParameter, Measurement.Adc.HighSpeed.Mode, AUTO
TestParameter, Measurement.Adc.HighSpeed.Coeff, 1
TestParameter, Measurement.Adc.HighResolution.AutoZero, OFF
TestParameter, Measurement.Adc.HighResolution.Mode, AUTO
TestParameter, Measurement.Adc.HighResolution.Coeff, 127
TestParameter, Measurement.WaitTime.Source.Coeff, 1
TestParameter, Measurement.WaitTime.Source.Offset, 0
TestParameter, Measurement.WaitTime.Monitor.Coeff, 1
TestParameter, Measurement.WaitTime.Monitor.Offset, 0
TestParameter, Function.User.Name, AbsId, AbsIs
TestParameter, Function.User.Unit, A, A
TestParameter, Function.User.Definition, abs(Id), abs(Is)
TestParameter, Output.Graph.Enabled, true
TestParameter, Output.Graph.AutoScaling, false
TestParameter, Output.Graph.XAxis.Data, Vd
TestParameter, Output.Graph.XAxis.Scale, Linear
TestParameter, Output.Graph.XAxis.Left, 0.5
TestParameter, Output.Graph.XAxis.Right, -1
TestParameter, Output.Graph.XAxis.RunTimeAutoScale, false
TestParameter, Output.Graph.YAxis.Data, AbsId, AbsIs
TestParameter, Output.Graph.YAxis.Scale, Linear, Linear
TestParameter, Output.Graph.YAxis.Bottom, 0, 0
TestParameter, Output.Graph.YAxis.Top, 1, 1
TestParameter, Output.Graph.YAxis.Group, Group 1, Group 1
TestParameter, Output.Graph.YAxis.RunTimeAutoScale, true, true
TestParameter, Output.List.Data, Vd, Id, Is, Vg, Ig, Vs, AbsId, AbsIs
TestParameter, AutoAnalysis.Interpolation, false
TestParameter, AutoAnalysis.Line1.Enabled, false
TestParameter, AutoAnalysis.Line1.Type, 1
TestParameter, AutoAnalysis.Line1.Fix, True
TestParameter, AutoAnalysis.Line1.YAxis, 0
TestParameter, AutoAnalysis.Line1.Point1.Type, 0
TestParameter, AutoAnalysis.Line1.Point1.XY.X, 
TestParameter, AutoAnalysis.Line1.Point1.XY.Y, 
TestParameter, AutoAnalysis.Line1.Point1.Data.Var, 
TestParameter, AutoAnalysis.Line1.Point1.Data.Condition, 
TestParameter, AutoAnalysis.Line1.Point1.Data.Start, false
TestParameter, AutoAnalysis.Line1.Point1.Data.StartVar, 
TestParameter, AutoAnalysis.Line1.Point1.Data.StartCondition, 
TestParameter, AutoAnalysis.Line1.Point2.Type, 0
TestParameter, AutoAnalysis.Line1.Point2.XY.X, 
TestParameter, AutoAnalysis.Line1.Point2.XY.Y, 
TestParameter, AutoAnalysis.Line1.Point2.Data.Var, 
TestParameter, AutoAnalysis.Line1.Point2.Data.Condition, 
TestParameter, AutoAnalysis.Line1.Point2.Data.Start, false
TestParameter, AutoAnalysis.Line1.Point2.Data.StartVar, 
TestParameter, AutoAnalysis.Line1.Point2.Data.StartCondition, 
TestParameter, AutoAnalysis.Line1.GradientExpr, 0
TestParameter, AutoAnalysis.Line2.Enabled, false
TestParameter, AutoAnalysis.Line2.Type, 1
TestParameter, AutoAnalysis.Line2.Fix, True
TestParameter, AutoAnalysis.Line2.YAxis, 0
TestParameter, AutoAnalysis.Line2.Point1.Type, 0
TestParameter, AutoAnalysis.Line2.Point1.XY.X, 
TestParameter, AutoAnalysis.Line2.Point1.XY.Y, 
TestParameter, AutoAnalysis.Line2.Point1.Data.Var, 
TestParameter, AutoAnalysis.Line2.Point1.Data.Condition, 
TestParameter, AutoAnalysis.Line2.Point1.Data.Start, false
TestParameter, AutoAnalysis.Line2.Point1.Data.StartVar, 
TestParameter, AutoAnalysis.Line2.Point1.Data.StartCondition, 
TestParameter, AutoAnalysis.Line2.Point2.Type, 0
TestParameter, AutoAnalysis.Line2.Point2.XY.X, 
TestParameter, AutoAnalysis.Line2.Point2.XY.Y, 
TestParameter, AutoAnalysis.Line2.Point2.Data.Var, 
TestParameter, AutoAnalysis.Line2.Point2.Data.Condition, 
TestParameter, AutoAnalysis.Line2.Point2.Data.Start, false
TestParameter, AutoAnalysis.Line2.Point2.Data.StartVar, 
TestParameter, AutoAnalysis.Line2.Point2.Data.StartCondition, 
TestParameter, AutoAnalysis.Line2.GradientExpr, 0
TestParameter, AutoAnalysis.Marker.Enabled, false
TestParameter, AutoAnalysis.Marker.Data.Var, 
TestParameter, AutoAnalysis.Marker.Data.Condition, 
TestParameter, AutoAnalysis.Marker.Data.Start, false
TestParameter, AutoAnalysis.Marker.Data.StartVar, 
TestParameter, AutoAnalysis.Marker.Data.StartCondition, 
MetaData, TestRecord.EntryPoint, true
MetaData, TestRecord.RecordTime, 10/23/2019 09:04:30
MetaData, TestRecord.TestTarget, .3um-3
MetaData, TestRecord.IterationIndex, 5
MetaData, TestRecord.Preservation, true
MetaData, TestRecord.Flag, 
MetaData, TestRecord.Remarks, 
MetaData, TestRecord.LinkKey, 97b4074b-3c59-4db7-b158-b77106518733
Dimension1, 151, 151, 151, 151, 151, 151, 151, 151
Dimension2, 8, 8, 8, 8, 8, 8, 8, 8
DataName, Vd, Vg, Vs, Id, Is, Ig, AbsId, AbsIs
DataValue, 0, -5, 0, 1.71E-13, 1.6700000000000002E-13, -8.466E-12, 1.71E-13, 1.6700000000000002E-13
DataValue, -0.013300000000000001, -5, 0, 8E-15, 1.3E-13, -7.742E-12, 8E-15, 1.3E-13
DataValue, -0.0267, -5, 0, 9.5000000000000012E-14, 1.36E-13, -7.2010000000000005E-12, 9.5000000000000012E-14, 1.36E-13
DataValue, -0.04, -5, 0, 1.3900000000000001E-13, -6.0000000000000005E-15, -5.5340000000000005E-12, 1.3900000000000001E-13, 6.0000000000000005E-15
DataValue, -0.0533, -5, 0, 8.0000000000000013E-14, 3.0000000000000005E-14, -5.7E-12, 8.0000000000000013E-14, 3.0000000000000005E-14
DataValue, -0.066700000000000009, -5, 0, 2E-15, -2E-15, -4.938E-12, 2E-15, 2E-15
DataValue, -0.08, -5, 0, -3.0000000000000002E-15, 9.0000000000000008E-14, -4.2140000000000004E-12, 3.0000000000000002E-15, 9.0000000000000008E-14
DataValue, -0.093300000000000008, -5, 0, 4.7E-14, 9.4E-14, -4.67E-12, 4.7E-14, 9.4E-14
DataValue, -0.1067, -5, 0, -6.4E-14, 7.7E-14, -4.4240000000000005E-12, 6.4E-14, 7.7E-14
DataValue, -0.12000000000000001, -5, 0, 1.3000000000000001E-14, -1.6E-14, -3.8610000000000006E-12, 1.3000000000000001E-14, 1.6E-14
DataValue, -0.1333, -5, 0, 6.3000000000000009E-14, 2E-15, -3.5530000000000003E-12, 6.3000000000000009E-14, 2E-15
DataValue, -0.1467, -5, 0, 1.23E-13, -4.4E-14, -3.3230000000000003E-12, 1.23E-13, 4.4E-14
DataValue, -0.16, -5, 0, 2.4000000000000002E-14, 1.0000000000000002E-14, -3.0480000000000003E-12, 2.4000000000000002E-14, 1.0000000000000002E-14
DataValue, -0.1733, -5, 0, 4.0000000000000006E-14, 2.1000000000000002E-14, -2.8690000000000004E-12, 4.0000000000000006E-14, 2.1000000000000002E-14
DataValue, -0.1867, -5, 0, -1.16E-13, 9.1E-14, -3.868E-12, 1.16E-13, 9.1E-14
DataValue, -0.2, -5, 0, -2E-15, 3.7E-14, -2.77E-12, 2E-15, 3.7E-14
DataValue, -0.21330000000000002, -5, 0, 7.5000000000000009E-14, -4.2000000000000004E-14, -2.6140000000000004E-12, 7.5000000000000009E-14, 4.2000000000000004E-14
DataValue, -0.2267, -5, 0, -1E-15, -4.2000000000000004E-14, -4.385E-12, 1E-15, 4.2000000000000004E-14
DataValue, -0.24000000000000002, -5, 0, 3.0000000000000005E-14, -2.1000000000000002E-14, -2.716E-12, 3.0000000000000005E-14, 2.1000000000000002E-14
DataValue, -0.2533, -5, 0, -4.1E-14, -1.6E-14, -2.0700000000000003E-12, 4.1E-14, 1.6E-14
DataValue, -0.2667, -5, 0, 2E-15, 5.3E-14, -2.4550000000000003E-12, 2E-15, 5.3E-14
DataValue, -0.28, -5, 0, -1.9E-14, 2.3000000000000003E-14, -2.3620000000000002E-12, 1.9E-14, 2.3000000000000003E-14
DataValue, -0.2933, -5, 0, -4.3000000000000006E-14, -1.5000000000000002E-14, -2.115E-12, 4.3000000000000006E-14, 1.5000000000000002E-14
DataValue, -0.30670000000000003, -5, 0, 3.2E-14, -9.0000000000000011E-15, -2.381E-12, 3.2E-14, 9.0000000000000011E-15
DataValue, -0.32, -5, 0, 1.1100000000000001E-13, -8.6000000000000012E-14, -2.3000000000000003E-12, 1.1100000000000001E-13, 8.6000000000000012E-14
DataValue, -0.33330000000000004, -5, 0, -5.8E-14, 1.0000000000000002E-14, -1.9660000000000003E-12, 5.8E-14, 1.0000000000000002E-14
DataValue, -0.3467, -5, 0, 2.2E-14, -1.7E-14, -1.8910000000000003E-12, 2.2E-14, 1.7E-14
DataValue, -0.36000000000000004, -5, 0, -1.2600000000000002E-13, 6.7E-14, -2.002E-12, 1.2600000000000002E-13, 6.7E-14
DataValue, -0.3733, -5, 0, -3.0000000000000002E-15, -3.7E-14, -2.009E-12, 3.0000000000000002E-15, 3.7E-14
DataValue, -0.38670000000000004, -5, 0, 1.41E-13, -2.7000000000000002E-14, -1.8910000000000003E-12, 1.41E-13, 2.7000000000000002E-14
DataValue, -0.4, -5, 0, 3.6000000000000004E-14, -1.19E-13, -1.6970000000000001E-12, 3.6000000000000004E-14, 1.19E-13
DataValue, -0.4133, -5, 0, -2.7000000000000002E-14, 1.4E-14, -1.644E-12, 2.7000000000000002E-14, 1.4E-14
DataValue, -0.4267, -5, 0, -2.1000000000000002E-14, -3.7E-14, -1.642E-12, 2.1000000000000002E-14, 3.7E-14
DataValue, -0.44, -5, 0, -5.5000000000000005E-14, 5.8E-14, -1.64E-12, 5.5000000000000005E-14, 5.8E-14
DataValue, -0.45330000000000004, -5, 0, -9.1E-14, 2.9E-14, -1.6160000000000002E-12, 9.1E-14, 2.9E-14
DataValue, -0.4667, -5, 0, -2.3000000000000003E-14, -4.2000000000000004E-14, -1.6280000000000001E-12, 2.3000000000000003E-14, 4.2000000000000004E-14
DataValue, -0.48000000000000004, -5, 0, 4.0000000000000006E-14, -3.5E-14, -1.4200000000000002E-12, 4.0000000000000006E-14, 3.5E-14
DataValue, -0.4933, -5, 0, 2.5E-14, -1.0400000000000001E-13, -1.4630000000000001E-12, 2.5E-14, 1.0400000000000001E-13
DataValue, -0.5067, -5, 0, -2.9E-14, -2E-15, -1.6930000000000002E-12, 2.9E-14, 2E-15
DataValue, -0.52, -5, 0, -3.4E-14, -1.7E-14, -1.65E-12, 3.4E-14, 1.7E-14
DataValue, -0.5333, -5, 0, -1.1400000000000002E-13, 7.9E-14, -1.471E-12, 1.1400000000000002E-13, 7.9E-14
DataValue, -0.54670000000000007, -5, 0, 3.0000000000000002E-15, -6.0000000000000005E-15, -1.3000000000000001E-12, 3.0000000000000002E-15, 6.0000000000000005E-15
DataValue, -0.56, -5, 0, 9.2000000000000012E-14, -5.3E-14, -1.174E-12, 9.2000000000000012E-14, 5.3E-14
DataValue, -0.5733, -5, 0, 3.7E-14, -7.8000000000000008E-14, -1.0180000000000001E-12, 3.7E-14, 7.8000000000000008E-14
DataValue, -0.5867, -5, 0, -4.5000000000000004E-14, -3.2E-14, -1.4260000000000002E-12, 4.5000000000000004E-14, 3.2E-14
DataValue, -0.6, -5, 0, -3.1E-14, -2.1000000000000002E-14, -1.2000000000000001E-12, 3.1E-14, 2.1000000000000002E-14
DataValue, -0.61330000000000007, -5, 0, -8.6000000000000012E-14, 1.7E-14, -1.22E-12, 8.6000000000000012E-14, 1.7E-14
DataValue, -0.6267, -5, 0, -3.3000000000000005E-14, 3.7E-14, -1.0870000000000001E-12, 3.3000000000000005E-14, 3.7E-14
DataValue, -0.64, -5, 0, 1.2000000000000001E-14, -3.0000000000000002E-15, -1.147E-12, 1.2000000000000001E-14, 3.0000000000000002E-15
DataValue, -0.6533, -5, 0, -3.0000000000000005E-14, -6.7E-14, -1.247E-12, 3.0000000000000005E-14, 6.7E-14
DataValue, -0.66670000000000007, -5, 0, 1.1500000000000002E-13, -1E-13, -1.1230000000000002E-12, 1.1500000000000002E-13, 1E-13
DataValue, -0.68, -5, 0, -1.0000000000000002E-14, -2E-15, -1.023E-12, 1.0000000000000002E-14, 2E-15
DataValue, -0.6933, -5, 0, -9.0000000000000011E-15, -2.7000000000000002E-14, -1.105E-12, 9.0000000000000011E-15, 2.7000000000000002E-14
DataValue, -0.7067, -5, 0, -1.0800000000000001E-13, 6.9000000000000009E-14, -1.1480000000000002E-12, 1.0800000000000001E-13, 6.9000000000000009E-14
DataValue, -0.72000000000000008, -5, 0, 2.3000000000000003E-14, -3.0000000000000002E-15, -9.49E-13, 2.3000000000000003E-14, 3.0000000000000002E-15
DataValue, -0.73330000000000006, -5, 0, 1.2000000000000001E-14, -4.9000000000000006E-14, -1.068E-12, 1.2000000000000001E-14, 4.9000000000000006E-14
DataValue, -0.7467, -5, 0, 4.4E-14, -1.18E-13, -1.2750000000000001E-12, 4.4E-14, 1.18E-13
DataValue, -0.76, -5, 0, -2.6000000000000003E-14, -9.7E-14, -7.9300000000000005E-13, 2.6000000000000003E-14, 9.7E-14
DataValue, -0.7733, -5, 0, -1E-13, 5.1000000000000004E-14, -1.074E-12, 1E-13, 5.1000000000000004E-14
DataValue, -0.78670000000000007, -5, 0, -1.1000000000000001E-13, 2.1000000000000002E-14, -9.470000000000001E-13, 1.1000000000000001E-13, 2.1000000000000002E-14
DataValue, -0.8, -5, 0, 3.0000000000000002E-15, 2.0000000000000003E-14, -8.71E-13, 3.0000000000000002E-15, 2.0000000000000003E-14
DataValue, -0.8133, -5, 0, -5.9E-14, 1.4E-14, -7.8400000000000009E-13, 5.9E-14, 1.4E-14
DataValue, -0.8267, -5, 0, 4.1E-14, -9.9000000000000007E-14, -7.100000000000001E-13, 4.1E-14, 9.9000000000000007E-14
DataValue, -0.84000000000000008, -5, 0, -3.3000000000000005E-14, -7.8000000000000008E-14, -6.5000000000000006E-13, 3.3000000000000005E-14, 7.8000000000000008E-14
DataValue, -0.85330000000000006, -5, 0, -4.8000000000000004E-14, -4.1E-14, -8.3100000000000009E-13, 4.8000000000000004E-14, 4.1E-14
DataValue, -0.8667, -5, 0, 1.8000000000000002E-14, -5.0000000000000008E-15, -7E-13, 1.8000000000000002E-14, 5.0000000000000008E-15
DataValue, -0.88, -5, 0, -1.1400000000000002E-13, 4.4E-14, -7.1300000000000009E-13, 1.1400000000000002E-13, 4.4E-14
DataValue, -0.89330000000000009, -5, 0, -2.9E-14, -2.0000000000000003E-14, -5.91E-13, 2.9E-14, 2.0000000000000003E-14
DataValue, -0.90670000000000006, -5, 0, -7.8000000000000008E-14, -9.7E-14, -4.8400000000000006E-13, 7.8000000000000008E-14, 9.7E-14
DataValue, -0.92, -5, 0, -1.6E-14, -1.12E-13, -5.5000000000000008E-13, 1.6E-14, 1.12E-13
DataValue, -0.9333, -5, 0, 2.1000000000000002E-14, -6.0000000000000009E-14, -5.59E-13, 2.1000000000000002E-14, 6.0000000000000009E-14
DataValue, -0.9467000000000001, -5, 0, -9.5000000000000012E-14, -3.4E-14, -7.07E-13, 9.5000000000000012E-14, 3.4E-14
DataValue, -0.96000000000000008, -5, 0, -1.28E-13, 4.3000000000000006E-14, -7.07E-13, 1.28E-13, 4.3000000000000006E-14
DataValue, -0.9733, -5, 0, -1.0000000000000002E-14, 6.1E-14, -6.52E-13, 1.0000000000000002E-14, 6.1E-14
DataValue, -0.9867, -5, 0, -2.2E-14, -4.6000000000000006E-14, -8.65E-13, 2.2E-14, 4.6000000000000006E-14
DataValue, -1, -5, 0, -5.0000000000000008E-15, -5.1000000000000004E-14, -9.71E-13, 5.0000000000000008E-15, 5.1000000000000004E-14
DataValue, -1.0133, -5, 0, 4.7E-14, -1.0100000000000001E-13, -5.66E-13, 4.7E-14, 1.0100000000000001E-13
DataValue, -1.0267, -5, 0, -4.4E-14, -2.8E-14, -6.5100000000000005E-13, 4.4E-14, 2.8E-14
DataValue, -1.04, -5, 0, -3.0000000000000002E-15, 0, -5.18E-13, 3.0000000000000002E-15, 0
DataValue, -1.0533000000000001, -5, 0, -2.4000000000000002E-14, 7.5000000000000009E-14, -6.12E-13, 2.4000000000000002E-14, 7.5000000000000009E-14
DataValue, -1.0667, -5, 0, -6.6000000000000009E-14, -1E-15, -5.39E-13, 6.6000000000000009E-14, 1E-15
DataValue, -1.08, -5, 0, -2.3000000000000003E-14, -6.5E-14, -4.4400000000000003E-13, 2.3000000000000003E-14, 6.5E-14
DataValue, -1.0933000000000002, -5, 0, -2.9E-14, -1.0200000000000001E-13, -4.91E-13, 2.9E-14, 1.0200000000000001E-13
DataValue, -1.1067, -5, 0, -1.0000000000000002E-14, -8.5E-14, -4.63E-13, 1.0000000000000002E-14, 8.5E-14
DataValue, -1.12, -5, 0, -2.6000000000000003E-14, 9.0000000000000011E-15, -5.83E-13, 2.6000000000000003E-14, 9.0000000000000011E-15
DataValue, -1.1333, -5, 0, -8.0000000000000013E-14, 3.7E-14, -5.7600000000000007E-13, 8.0000000000000013E-14, 3.7E-14
DataValue, -1.1467, -5, 0, -1.3300000000000001E-13, 5E-14, -4.2800000000000004E-13, 1.3300000000000001E-13, 5E-14
DataValue, -1.1600000000000001, -5, 0, -7.5000000000000009E-14, -3.0000000000000005E-14, -3.2000000000000005E-13, 7.5000000000000009E-14, 3.0000000000000005E-14
DataValue, -1.1733, -5, 0, 4.3000000000000006E-14, -9.9000000000000007E-14, -3.19E-13, 4.3000000000000006E-14, 9.9000000000000007E-14
DataValue, -1.1867, -5, 0, -2.6000000000000003E-14, -7.4E-14, -3.42E-13, 2.6000000000000003E-14, 7.4E-14
DataValue, -1.2, -5, 0, -1.22E-13, -1.6E-14, -3.4900000000000003E-13, 1.22E-13, 1.6E-14
DataValue, -1.2133, -5, 0, -8.8E-14, 6.0000000000000005E-15, -4.3800000000000005E-13, 8.8E-14, 6.0000000000000005E-15
DataValue, -1.2267000000000001, -5, 0, 8E-15, 1.0000000000000002E-14, -3.38E-13, 8E-15, 1.0000000000000002E-14
DataValue, -1.24, -5, 0, -1.3000000000000001E-14, -5.4000000000000003E-14, -3.52E-13, 1.3000000000000001E-14, 5.4000000000000003E-14
DataValue, -1.2533, -5, 0, 2E-15, -5.700000000000001E-14, -3.18E-13, 2E-15, 5.700000000000001E-14
DataValue, -1.2667000000000002, -5, 0, -3.3000000000000005E-14, -1.1300000000000001E-13, -3.3200000000000005E-13, 3.3000000000000005E-14, 1.1300000000000001E-13
DataValue, -1.28, -5, 0, -3.1E-14, -6.5E-14, -3.1300000000000003E-13, 3.1E-14, 6.5E-14
DataValue, -1.2933000000000001, -5, 0, 3.5E-14, -4.2000000000000004E-14, -3.1300000000000003E-13, 3.5E-14, 4.2000000000000004E-14
DataValue, -1.3067, -5, 0, -1.24E-13, 5E-14, -3.76E-13, 1.24E-13, 5E-14
DataValue, -1.32, -5, 0, -1.57E-13, 6.7E-14, -3.77E-13, 1.57E-13, 6.7E-14
DataValue, -1.3333000000000002, -5, 0, -7.3E-14, -2.0000000000000003E-14, -1.9100000000000002E-13, 7.3E-14, 2.0000000000000003E-14
DataValue, -1.3467, -5, 0, 3.9000000000000004E-14, -8.3000000000000012E-14, -2.9900000000000004E-13, 3.9000000000000004E-14, 8.3000000000000012E-14
DataValue, -1.36, -5, 0, 6.1E-14, -1.1000000000000001E-13, -1.94E-13, 6.1E-14, 1.1000000000000001E-13
DataValue, -1.3733, -5, 0, -1.1000000000000001E-13, -3.7E-14, -3.3200000000000005E-13, 1.1000000000000001E-13, 3.7E-14
DataValue, -1.3867, -5, 0, -9.1E-14, -2.2E-14, -3.05E-13, 9.1E-14, 2.2E-14
DataValue, -1.4000000000000001, -5, 0, -7.7E-14, -1.8000000000000002E-14, -1.93E-13, 7.7E-14, 1.8000000000000002E-14
DataValue, -1.4133, -5, 0, -7.9E-14, -3.6000000000000004E-14, -2.12E-13, 7.9E-14, 3.6000000000000004E-14
DataValue, -1.4267, -5, 0, -1.4E-14, -7.6E-14, -1.3800000000000002E-13, 1.4E-14, 7.6E-14
DataValue, -1.4400000000000002, -5, 0, 4E-15, -9.2000000000000012E-14, -1.23E-13, 4E-15, 9.2000000000000012E-14
DataValue, -1.4533, -5, 0, -3.8E-14, -1.0000000000000002E-14, -1.94E-13, 3.8E-14, 1.0000000000000002E-14
DataValue, -1.4667000000000001, -5, 0, -4.0000000000000006E-14, -1.3000000000000001E-14, -2.17E-13, 4.0000000000000006E-14, 1.3000000000000001E-14
DataValue, -1.48, -5, 0, -1E-13, 5E-14, -2.43E-13, 1E-13, 5E-14
DataValue, -1.4933, -5, 0, -6.3000000000000009E-14, 6.1E-14, -1.34E-13, 6.3000000000000009E-14, 6.1E-14
DataValue, -1.5067000000000002, -5, 0, 2.1000000000000002E-14, -7.6E-14, -1.2600000000000002E-13, 2.1000000000000002E-14, 7.6E-14
