
SetupTitle, Id-Vd_pFET
PrimitiveTest, I/V Sweep
TestParameter, Context.MainFrame, B1500A
TestParameter, Channel.UnitType, SMU, SMU, SMU
TestParameter, Channel.Unit, SMU1:HR/AS, SMU4:HR/AS, SMU6:MP
TestParameter, Channel.IName, Id, Is, Ig
TestParameter, Channel.VName, Vd, Vs, Vg
TestParameter, Channel.Mode, V, V, V
TestParameter, Channel.Func, VAR1, CONST, VAR2
TestParameter, Channel.Index, 
TestParameter, Channel.Time, 
TestParameter, Measurement.Port.Unit, SMU1:HR/AS, SMU4:HR/AS, SMU6:MP
TestParameter, Measurement.Port.SeriesResistor, NONE, NONE, NONE
TestParameter, Measurement.Port.Filter, ON, ON, ON
TestParameter, Measurement.Port.OutputVoltageComparison, 0, 0, 0
TestParameter, Measurement.Primary.Locus, Single
TestParameter, Measurement.Primary.Scale, LINEAR
TestParameter, Measurement.Primary.Start, 0
TestParameter, Measurement.Primary.Stop, -2
TestParameter, Measurement.Primary.Step, -0.013300000000000001
TestParameter, Measurement.Primary.Compliance, 1E-05
TestParameter, Measurement.Primary.PowerCompliance, 0
TestParameter, Measurement.Aborting.Condition, CONTINUE AT ANY
TestParameter, Measurement.PostOutput.Value, START
TestParameter, Measurement.PostOutput.Retention, OFF
TestParameter, Measurement.Secondary.Start, -5
TestParameter, Measurement.Secondary.Count, 8
TestParameter, Measurement.Secondary.Step, -5
TestParameter, Measurement.Secondary.Compliance, 1E-05
TestParameter, Measurement.Secondary.PowerCompliance, 0
TestParameter, Measurement.Bias.Source, 0, 0, -5
TestParameter, Measurement.Bias.Compliance, 1E-05, 1E-05, 1E-05
TestParameter, Measurement.Monitor.Unit, SMU1:HR/AS, SMU4:HR/AS, SMU6:MP
TestParameter, Measurement.Monitor.Adc, HR ADC, HR ADC, HR ADC
TestParameter, Measurement.Monitor.Measurement, Compliance Side, Compliance Side, Compliance Side
TestParameter, Measurement.Monitor.RangingMode, LIMITED, LIMITED, LIMITED
TestParameter, Measurement.Monitor.RangeBoundary, 1nA, 1nA, 1nA
TestParameter, Measurement.Monitor.RangeRating, BY FULL RANGE, BY FULL RANGE, BY FULL RANGE
TestParameter, Measurement.Monitor.RangeRatingCoeff, 50, 50, 50
TestParameter, Measurement.Timing.Hold, 1
TestParameter, Measurement.Timing.Delay, 0
TestParameter, Measurement.Adc.HighSpeed.Mode, AUTO
TestParameter, Measurement.Adc.HighSpeed.Coeff, 1
TestParameter, Measurement.Adc.HighResolution.AutoZero, OFF
TestParameter, Measurement.Adc.HighResolution.Mode, AUTO
TestParameter, Measurement.Adc.HighResolution.Coeff, 127
TestParameter, Measurement.WaitTime.Source.Coeff, 1
TestParameter, Measurement.WaitTime.Source.Offset, 0
TestParameter, Measurement.WaitTime.Monitor.Coeff, 1
TestParameter, Measurement.WaitTime.Monitor.Offset, 0
TestParameter, Function.User.Name, AbsId, AbsIs
TestParameter, Function.User.Unit, A, A
TestParameter, Function.User.Definition, abs(Id), abs(Is)
TestParameter, Output.Graph.Enabled, true
TestParameter, Output.Graph.AutoScaling, false
TestParameter, Output.Graph.XAxis.Data, Vd
TestParameter, Output.Graph.XAxis.Scale, Linear
TestParameter, Output.Graph.XAxis.Left, 0.5
TestParameter, Output.Graph.XAxis.Right, -1
TestParameter, Output.Graph.XAxis.RunTimeAutoScale, false
TestParameter, Output.Graph.YAxis.Data, AbsId, AbsIs
TestParameter, Output.Graph.YAxis.Scale, Linear, Linear
TestParameter, Output.Graph.YAxis.Bottom, 0, 0
TestParameter, Output.Graph.YAxis.Top, 1, 1
TestParameter, Output.Graph.YAxis.Group, Group 1, Group 1
TestParameter, Output.Graph.YAxis.RunTimeAutoScale, true, true
TestParameter, Output.List.Data, Vd, Id, Is, Vg, Ig, Vs, AbsId, AbsIs
TestParameter, AutoAnalysis.Interpolation, false
TestParameter, AutoAnalysis.Line1.Enabled, false
TestParameter, AutoAnalysis.Line1.Type, 1
TestParameter, AutoAnalysis.Line1.Fix, True
TestParameter, AutoAnalysis.Line1.YAxis, 0
TestParameter, AutoAnalysis.Line1.Point1.Type, 0
TestParameter, AutoAnalysis.Line1.Point1.XY.X, 
TestParameter, AutoAnalysis.Line1.Point1.XY.Y, 
TestParameter, AutoAnalysis.Line1.Point1.Data.Var, 
TestParameter, AutoAnalysis.Line1.Point1.Data.Condition, 
TestParameter, AutoAnalysis.Line1.Point1.Data.Start, false
TestParameter, AutoAnalysis.Line1.Point1.Data.StartVar, 
TestParameter, AutoAnalysis.Line1.Point1.Data.StartCondition, 
TestParameter, AutoAnalysis.Line1.Point2.Type, 0
TestParameter, AutoAnalysis.Line1.Point2.XY.X, 
TestParameter, AutoAnalysis.Line1.Point2.XY.Y, 
TestParameter, AutoAnalysis.Line1.Point2.Data.Var, 
TestParameter, AutoAnalysis.Line1.Point2.Data.Condition, 
TestParameter, AutoAnalysis.Line1.Point2.Data.Start, false
TestParameter, AutoAnalysis.Line1.Point2.Data.StartVar, 
TestParameter, AutoAnalysis.Line1.Point2.Data.StartCondition, 
TestParameter, AutoAnalysis.Line1.GradientExpr, 0
TestParameter, AutoAnalysis.Line2.Enabled, false
TestParameter, AutoAnalysis.Line2.Type, 1
TestParameter, AutoAnalysis.Line2.Fix, True
TestParameter, AutoAnalysis.Line2.YAxis, 0
TestParameter, AutoAnalysis.Line2.Point1.Type, 0
TestParameter, AutoAnalysis.Line2.Point1.XY.X, 
TestParameter, AutoAnalysis.Line2.Point1.XY.Y, 
TestParameter, AutoAnalysis.Line2.Point1.Data.Var, 
TestParameter, AutoAnalysis.Line2.Point1.Data.Condition, 
TestParameter, AutoAnalysis.Line2.Point1.Data.Start, false
TestParameter, AutoAnalysis.Line2.Point1.Data.StartVar, 
TestParameter, AutoAnalysis.Line2.Point1.Data.StartCondition, 
TestParameter, AutoAnalysis.Line2.Point2.Type, 0
TestParameter, AutoAnalysis.Line2.Point2.XY.X, 
TestParameter, AutoAnalysis.Line2.Point2.XY.Y, 
TestParameter, AutoAnalysis.Line2.Point2.Data.Var, 
TestParameter, AutoAnalysis.Line2.Point2.Data.Condition, 
TestParameter, AutoAnalysis.Line2.Point2.Data.Start, false
TestParameter, AutoAnalysis.Line2.Point2.Data.StartVar, 
TestParameter, AutoAnalysis.Line2.Point2.Data.StartCondition, 
TestParameter, AutoAnalysis.Line2.GradientExpr, 0
TestParameter, AutoAnalysis.Marker.Enabled, false
TestParameter, AutoAnalysis.Marker.Data.Var, 
TestParameter, AutoAnalysis.Marker.Data.Condition, 
TestParameter, AutoAnalysis.Marker.Data.Start, false
TestParameter, AutoAnalysis.Marker.Data.StartVar, 
TestParameter, AutoAnalysis.Marker.Data.StartCondition, 
MetaData, TestRecord.EntryPoint, true
MetaData, TestRecord.RecordTime, 10/23/2019 09:25:26
MetaData, TestRecord.TestTarget, .2um-2
MetaData, TestRecord.IterationIndex, 8
MetaData, TestRecord.Preservation, true
MetaData, TestRecord.Flag, 
MetaData, TestRecord.Remarks, 
MetaData, TestRecord.LinkKey, 67f4e127-4124-43fa-a21d-de5ae69d3dd2
Dimension1, 151, 151, 151, 151, 151, 151, 151, 151
Dimension2, 2, 2, 2, 2, 2, 2, 2, 2
DataName, Vd, Vg, Vs, Id, Is, Ig, AbsId, AbsIs
DataValue, 0, -5, 0, 1.000012E-05, 2.8E-14, -1.0000200000000001E-05, 1.000012E-05, 2.8E-14
DataValue, -0.013300000000000001, -5, 0, 1.0000130000000001E-05, -5E-14, -1.000019E-05, 1.0000130000000001E-05, 5E-14
DataValue, -0.0267, -5, 0, 1.0000150000000001E-05, -7.7E-14, -1.0000200000000001E-05, 1.0000150000000001E-05, 7.7E-14
DataValue, -0.04, -5, 0, 1.0000110000000002E-05, 2.6000000000000003E-14, -1.0000200000000001E-05, 1.0000110000000002E-05, 2.6000000000000003E-14
DataValue, -0.0533, -5, 0, 1.0000110000000002E-05, -8.4000000000000008E-14, -1.000021E-05, 1.0000110000000002E-05, 8.4000000000000008E-14
DataValue, -0.066700000000000009, -5, 0, 1.000012E-05, -5.9E-14, -1.0000220000000001E-05, 1.000012E-05, 5.9E-14
DataValue, -0.08, -5, 0, 1.0000110000000002E-05, 3.6000000000000004E-14, -1.0000200000000001E-05, 1.0000110000000002E-05, 3.6000000000000004E-14
DataValue, -0.093300000000000008, -5, 0, 1.0000110000000002E-05, -9.9000000000000007E-14, -1.0000200000000001E-05, 1.0000110000000002E-05, 9.9000000000000007E-14
DataValue, -0.1067, -5, 0, 1.0000080000000001E-05, -3.8E-14, -1.000021E-05, 1.0000080000000001E-05, 3.8E-14
DataValue, -0.12000000000000001, -5, 0, 1.0000110000000002E-05, 7E-15, -1.000021E-05, 1.0000110000000002E-05, 7E-15
DataValue, -0.1333, -5, 0, 1.000012E-05, -9.9000000000000007E-14, -1.0000200000000001E-05, 1.000012E-05, 9.9000000000000007E-14
DataValue, -0.1467, -5, 0, 1.0000050000000001E-05, -3.6000000000000004E-14, -1.000021E-05, 1.0000050000000001E-05, 3.6000000000000004E-14
DataValue, -0.16, -5, 0, 1.0000100000000001E-05, -2.6000000000000003E-14, -1.000021E-05, 1.0000100000000001E-05, 2.6000000000000003E-14
DataValue, -0.1733, -5, 0, 1.0000080000000001E-05, -1.0200000000000001E-13, -1.0000180000000002E-05, 1.0000080000000001E-05, 1.0200000000000001E-13
DataValue, -0.1867, -5, 0, 1.000009E-05, -3.4E-14, -1.0000200000000001E-05, 1.000009E-05, 3.4E-14
DataValue, -0.2, -5, 0, 1.0000060000000002E-05, -7.9E-14, -1.0000200000000001E-05, 1.0000060000000002E-05, 7.9E-14
DataValue, -0.21330000000000002, -5, 0, 1.0000110000000002E-05, -3.7E-14, -1.0000180000000002E-05, 1.0000110000000002E-05, 3.7E-14
DataValue, -0.2267, -5, 0, 1.000009E-05, -7.7E-14, -1.000021E-05, 1.000009E-05, 7.7E-14
DataValue, -0.24000000000000002, -5, 0, 1.0000080000000001E-05, -7.3E-14, -1.0000220000000001E-05, 1.0000080000000001E-05, 7.3E-14
DataValue, -0.2533, -5, 0, 1.0000080000000001E-05, -4.1E-14, -1.0000180000000002E-05, 1.0000080000000001E-05, 4.1E-14
DataValue, -0.2667, -5, 0, 1.0000050000000001E-05, -7E-14, -1.000024E-05, 1.0000050000000001E-05, 7E-14
DataValue, -0.28, -5, 0, 1.000007E-05, -4.8000000000000004E-14, -1.0000200000000001E-05, 1.000007E-05, 4.8000000000000004E-14
DataValue, -0.2933, -5, 0, 1.0000060000000002E-05, -3.0000000000000002E-15, -1.000021E-05, 1.0000060000000002E-05, 3.0000000000000002E-15
DataValue, -0.30670000000000003, -5, 0, 1.0000050000000001E-05, -7.2000000000000009E-14, -1.0000200000000001E-05, 1.0000050000000001E-05, 7.2000000000000009E-14
DataValue, -0.32, -5, 0, 1.0000100000000001E-05, -3.2E-14, -1.0000200000000001E-05, 1.0000100000000001E-05, 3.2E-14
DataValue, -0.33330000000000004, -5, 0, 1.0000030000000001E-05, -5.1000000000000004E-14, -1.0000200000000001E-05, 1.0000030000000001E-05, 5.1000000000000004E-14
DataValue, -0.3467, -5, 0, 1.0000050000000001E-05, -7.7E-14, -1.000019E-05, 1.0000050000000001E-05, 7.7E-14
DataValue, -0.36000000000000004, -5, 0, 1.0000060000000002E-05, -3.1E-14, -1.0000200000000001E-05, 1.0000060000000002E-05, 3.1E-14
DataValue, -0.3733, -5, 0, 1.000009E-05, -1.24E-13, -1.000021E-05, 1.000009E-05, 1.24E-13
DataValue, -0.38670000000000004, -5, 0, 1.0000060000000002E-05, -5E-14, -1.0000200000000001E-05, 1.0000060000000002E-05, 5E-14
DataValue, -0.4, -5, 0, 1.0000060000000002E-05, -1.1100000000000001E-13, -1.0000220000000001E-05, 1.0000060000000002E-05, 1.1100000000000001E-13
DataValue, -0.4133, -5, 0, 1.000004E-05, -1.1300000000000001E-13, -1.0000200000000001E-05, 1.000004E-05, 1.1300000000000001E-13
DataValue, -0.4267, -5, 0, 1.0000050000000001E-05, 2.5E-14, -1.000019E-05, 1.0000050000000001E-05, 2.5E-14
DataValue, -0.44, -5, 0, 1.0000060000000002E-05, -8.1000000000000008E-14, -1.000019E-05, 1.0000060000000002E-05, 8.1000000000000008E-14
DataValue, -0.45330000000000004, -5, 0, 1.000007E-05, -7.7E-14, -1.0000200000000001E-05, 1.000007E-05, 7.7E-14
DataValue, -0.4667, -5, 0, 1.000007E-05, 3.9000000000000004E-14, -1.0000220000000001E-05, 1.000007E-05, 3.9000000000000004E-14
DataValue, -0.48000000000000004, -5, 0, 1.0000050000000001E-05, -1.23E-13, -1.0000200000000001E-05, 1.0000050000000001E-05, 1.23E-13
DataValue, -0.4933, -5, 0, 1.0000050000000001E-05, -6.1E-14, -1.000021E-05, 1.0000050000000001E-05, 6.1E-14
DataValue, -0.5067, -5, 0, 1.0000030000000001E-05, -7.4E-14, -1.000021E-05, 1.0000030000000001E-05, 7.4E-14
DataValue, -0.52, -5, 0, 1.0000050000000001E-05, -6.6000000000000009E-14, -1.000021E-05, 1.0000050000000001E-05, 6.6000000000000009E-14
DataValue, -0.5333, -5, 0, 1.000002E-05, 2.6000000000000003E-14, -1.000019E-05, 1.000002E-05, 2.6000000000000003E-14
DataValue, -0.54670000000000007, -5, 0, 1.0000050000000001E-05, -7.8000000000000008E-14, -1.0000220000000001E-05, 1.0000050000000001E-05, 7.8000000000000008E-14
DataValue, -0.56, -5, 0, 1.0000030000000001E-05, -4.4E-14, -1.0000200000000001E-05, 1.0000030000000001E-05, 4.4E-14
DataValue, -0.5733, -5, 0, 1.0000030000000001E-05, -1E-15, -1.000019E-05, 1.0000030000000001E-05, 1E-15
DataValue, -0.5867, -5, 0, 1.0000030000000001E-05, -8.4000000000000008E-14, -1.0000200000000001E-05, 1.0000030000000001E-05, 8.4000000000000008E-14
DataValue, -0.6, -5, 0, 1.000002E-05, -1.3000000000000001E-14, -1.000021E-05, 1.000002E-05, 1.3000000000000001E-14
DataValue, -0.61330000000000007, -5, 0, 1.000004E-05, -4.5000000000000004E-14, -1.000021E-05, 1.000004E-05, 4.5000000000000004E-14
DataValue, -0.6267, -5, 0, 1.0000030000000001E-05, -7.5000000000000009E-14, -1.0000230000000002E-05, 1.0000030000000001E-05, 7.5000000000000009E-14
DataValue, -0.64, -5, 0, 1.0000050000000001E-05, -2.6000000000000003E-14, -1.000019E-05, 1.0000050000000001E-05, 2.6000000000000003E-14
DataValue, -0.6533, -5, 0, 1.0000050000000001E-05, -8.6000000000000012E-14, -1.0000200000000001E-05, 1.0000050000000001E-05, 8.6000000000000012E-14
DataValue, -0.66670000000000007, -5, 0, 1.0000050000000001E-05, -6.0000000000000009E-14, -1.000019E-05, 1.0000050000000001E-05, 6.0000000000000009E-14
DataValue, -0.68, -5, 0, 1.000004E-05, -4.1E-14, -1.0000220000000001E-05, 1.000004E-05, 4.1E-14
DataValue, -0.6933, -5, 0, 9.9999800000000011E-06, -8.3000000000000012E-14, -1.0000200000000001E-05, 9.9999800000000011E-06, 8.3000000000000012E-14
DataValue, -0.7067, -5, 0, 1.000002E-05, -5.8E-14, -1.0000200000000001E-05, 1.000002E-05, 5.8E-14
DataValue, -0.72000000000000008, -5, 0, 1.0000030000000001E-05, -3.5E-14, -1.000019E-05, 1.0000030000000001E-05, 3.5E-14
DataValue, -0.73330000000000006, -5, 0, 9.9999800000000011E-06, -8.5E-14, -1.000021E-05, 9.9999800000000011E-06, 8.5E-14
DataValue, -0.7467, -5, 0, 9.9999900000000018E-06, -4.5000000000000004E-14, -1.0000200000000001E-05, 9.9999900000000018E-06, 4.5000000000000004E-14
DataValue, -0.76, -5, 0, 1.000002E-05, -7.7E-14, -1.0000220000000001E-05, 1.000002E-05, 7.7E-14
DataValue, -0.7733, -5, 0, 1.0000030000000001E-05, -1.7E-14, -1.000019E-05, 1.0000030000000001E-05, 1.7E-14
DataValue, -0.78670000000000007, -5, 0, 1.0000050000000001E-05, -5.2000000000000006E-14, -1.000021E-05, 1.0000050000000001E-05, 5.2000000000000006E-14
DataValue, -0.8, -5, 0, 1E-05, -6.8E-14, -1.000021E-05, 1E-05, 6.8E-14
DataValue, -0.8133, -5, 0, 1.0000050000000001E-05, 1.8000000000000002E-14, -1.000019E-05, 1.0000050000000001E-05, 1.8000000000000002E-14
DataValue, -0.8267, -5, 0, 9.9999900000000018E-06, -1.2100000000000002E-13, -1.000019E-05, 9.9999900000000018E-06, 1.2100000000000002E-13
DataValue, -0.84000000000000008, -5, 0, 1.000002E-05, -5.3E-14, -1.0000200000000001E-05, 1.000002E-05, 5.3E-14
DataValue, -0.85330000000000006, -5, 0, 1.0000050000000001E-05, 3.2E-14, -1.0000230000000002E-05, 1.0000050000000001E-05, 3.2E-14
DataValue, -0.8667, -5, 0, 1.000004E-05, -1.34E-13, -1.000019E-05, 1.000004E-05, 1.34E-13
DataValue, -0.88, -5, 0, 1.000004E-05, -6.5E-14, -1.0000200000000001E-05, 1.000004E-05, 6.5E-14
DataValue, -0.89330000000000009, -5, 0, 1.0000050000000001E-05, -3.7E-14, -1.0000220000000001E-05, 1.0000050000000001E-05, 3.7E-14
DataValue, -0.90670000000000006, -5, 0, 1E-05, -5.8E-14, -1.000019E-05, 1E-05, 5.8E-14
DataValue, -0.92, -5, 0, 1.000004E-05, -1.5000000000000002E-14, -1.000021E-05, 1.000004E-05, 1.5000000000000002E-14
DataValue, -0.9333, -5, 0, 9.99997E-06, -5.1000000000000004E-14, -1.0000230000000002E-05, 9.99997E-06, 5.1000000000000004E-14
DataValue, -0.9467000000000001, -5, 0, 1.0000030000000001E-05, -3.1E-14, -1.0000200000000001E-05, 1.0000030000000001E-05, 3.1E-14
DataValue, -0.96000000000000008, -5, 0, 1.0000030000000001E-05, -2.0000000000000003E-14, -1.0000220000000001E-05, 1.0000030000000001E-05, 2.0000000000000003E-14
DataValue, -0.9733, -5, 0, 1.0000060000000002E-05, -9.3000000000000008E-14, -1.000021E-05, 1.0000060000000002E-05, 9.3000000000000008E-14
DataValue, -0.9867, -5, 0, 1.0000050000000001E-05, 3.1E-14, -1.000021E-05, 1.0000050000000001E-05, 3.1E-14
DataValue, -1, -5, 0, 1.000007E-05, -7.7E-14, -1.0000200000000001E-05, 1.000007E-05, 7.7E-14
DataValue, -1.0133, -5, 0, 1.000002E-05, -5.5000000000000005E-14, -1.000021E-05, 1.000002E-05, 5.5000000000000005E-14
DataValue, -1.0267, -5, 0, 1.0000010000000002E-05, -2.1000000000000002E-14, -1.0000230000000002E-05, 1.0000010000000002E-05, 2.1000000000000002E-14
DataValue, -1.04, -5, 0, 1.0000030000000001E-05, -7.5000000000000009E-14, -1.0000220000000001E-05, 1.0000030000000001E-05, 7.5000000000000009E-14
DataValue, -1.0533000000000001, -5, 0, 1.000002E-05, -1.9E-14, -1.000019E-05, 1.000002E-05, 1.9E-14
DataValue, -1.0667, -5, 0, 1.0000030000000001E-05, -2.4000000000000002E-14, -1.0000200000000001E-05, 1.0000030000000001E-05, 2.4000000000000002E-14
DataValue, -1.08, -5, 0, 1.000004E-05, -1.0100000000000001E-13, -1.0000200000000001E-05, 1.000004E-05, 1.0100000000000001E-13
DataValue, -1.0933000000000002, -5, 0, 1.0000030000000001E-05, -1.7E-14, -1.0000220000000001E-05, 1.0000030000000001E-05, 1.7E-14
DataValue, -1.1067, -5, 0, 1.0000060000000002E-05, -7.9E-14, -1.000021E-05, 1.0000060000000002E-05, 7.9E-14
DataValue, -1.12, -5, 0, 1.0000060000000002E-05, -2.1000000000000002E-14, -1.000019E-05, 1.0000060000000002E-05, 2.1000000000000002E-14
DataValue, -1.1333, -5, 0, 1.000004E-05, -3.0000000000000005E-14, -1.0000200000000001E-05, 1.000004E-05, 3.0000000000000005E-14
DataValue, -1.1467, -5, 0, 1E-05, -8.8E-14, -1.000019E-05, 1E-05, 8.8E-14
DataValue, -1.1600000000000001, -5, 0, 9.9999800000000011E-06, -3.9000000000000004E-14, -1.0000220000000001E-05, 9.9999800000000011E-06, 3.9000000000000004E-14
DataValue, -1.1733, -5, 0, 9.9999900000000018E-06, -2.3000000000000003E-14, -1.0000180000000002E-05, 9.9999900000000018E-06, 2.3000000000000003E-14
DataValue, -1.1867, -5, 0, 1.0000010000000002E-05, -6.8E-14, -1.000019E-05, 1.0000010000000002E-05, 6.8E-14
DataValue, -1.2, -5, 0, 1.000002E-05, -5.4000000000000003E-14, -1.000021E-05, 1.000002E-05, 5.4000000000000003E-14
DataValue, -1.2133, -5, 0, 1E-05, -6.0000000000000009E-14, -1.0000200000000001E-05, 1E-05, 6.0000000000000009E-14
DataValue, -1.2267000000000001, -5, 0, 1.0000050000000001E-05, -4.0000000000000006E-14, -1.0000200000000001E-05, 1.0000050000000001E-05, 4.0000000000000006E-14
DataValue, -1.24, -5, 0, 1.0000010000000002E-05, -6.6000000000000009E-14, -1.0000200000000001E-05, 1.0000010000000002E-05, 6.6000000000000009E-14
DataValue, -1.2533, -5, 0, 1.0000030000000001E-05, -7.1E-14, -1.000021E-05, 1.0000030000000001E-05, 7.1E-14
DataValue, -1.2667000000000002, -5, 0, 1.0000030000000001E-05, 2.8E-14, -1.0000200000000001E-05, 1.0000030000000001E-05, 2.8E-14
DataValue, -1.28, -5, 0, 1.0000010000000002E-05, -6.8E-14, -1.0000200000000001E-05, 1.0000010000000002E-05, 6.8E-14
DataValue, -1.2933000000000001, -5, 0, 9.99997E-06, -1.0000000000000002E-14, -1.0000200000000001E-05, 9.99997E-06, 1.0000000000000002E-14
DataValue, -1.3067, -5, 0, 1E-05, -1.7E-14, -1.0000200000000001E-05, 1E-05, 1.7E-14
DataValue, -1.32, -5, 0, 9.9999800000000011E-06, -1.0800000000000001E-13, -1.000021E-05, 9.9999800000000011E-06, 1.0800000000000001E-13
DataValue, -1.3333000000000002, -5, 0, 1.0000010000000002E-05, -2.7000000000000002E-14, -1.000019E-05, 1.0000010000000002E-05, 2.7000000000000002E-14
DataValue, -1.3467, -5, 0, 1.0000050000000001E-05, -6.2E-14, -1.0000200000000001E-05, 1.0000050000000001E-05, 6.2E-14
DataValue, -1.36, -5, 0, 1E-05, -7.3E-14, -1.0000220000000001E-05, 1E-05, 7.3E-14
DataValue, -1.3733, -5, 0, 1.0000010000000002E-05, -3.2E-14, -1.000021E-05, 1.0000010000000002E-05, 3.2E-14
DataValue, -1.3867, -5, 0, 1.0000010000000002E-05, -1E-13, -1.0000220000000001E-05, 1.0000010000000002E-05, 1E-13
DataValue, -1.4000000000000001, -5, 0, 9.9999900000000018E-06, -3.4E-14, -1.0000220000000001E-05, 9.9999900000000018E-06, 3.4E-14
