
SetupTitle, Id-Vd_pFET
PrimitiveTest, I/V Sweep
TestParameter, Context.MainFrame, B1500A
TestParameter, Channel.UnitType, SMU, SMU, SMU
TestParameter, Channel.Unit, SMU1:HR/AS, SMU4:HR/AS, SMU6:MP
TestParameter, Channel.IName, Id, Is, Ig
TestParameter, Channel.VName, Vd, Vs, Vg
TestParameter, Channel.Mode, V, V, V
TestParameter, Channel.Func, VAR1, CONST, VAR2
TestParameter, Channel.Index, 
TestParameter, Channel.Time, 
TestParameter, Measurement.Port.Unit, SMU1:HR/AS, SMU4:HR/AS, SMU6:MP
TestParameter, Measurement.Port.SeriesResistor, NONE, NONE, NONE
TestParameter, Measurement.Port.Filter, ON, ON, ON
TestParameter, Measurement.Port.OutputVoltageComparison, 0, 0, 0
TestParameter, Measurement.Primary.Locus, Single
TestParameter, Measurement.Primary.Scale, LINEAR
TestParameter, Measurement.Primary.Start, 0
TestParameter, Measurement.Primary.Stop, -2
TestParameter, Measurement.Primary.Step, -0.013300000000000001
TestParameter, Measurement.Primary.Compliance, 1E-05
TestParameter, Measurement.Primary.PowerCompliance, 0
TestParameter, Measurement.Aborting.Condition, CONTINUE AT ANY
TestParameter, Measurement.PostOutput.Value, START
TestParameter, Measurement.PostOutput.Retention, OFF
TestParameter, Measurement.Secondary.Start, -5
TestParameter, Measurement.Secondary.Count, 8
TestParameter, Measurement.Secondary.Step, -5
TestParameter, Measurement.Secondary.Compliance, 1E-05
TestParameter, Measurement.Secondary.PowerCompliance, 0
TestParameter, Measurement.Bias.Source, 0, 0, -5
TestParameter, Measurement.Bias.Compliance, 1E-05, 1E-05, 1E-05
TestParameter, Measurement.Monitor.Unit, SMU1:HR/AS, SMU4:HR/AS, SMU6:MP
TestParameter, Measurement.Monitor.Adc, HR ADC, HR ADC, HR ADC
TestParameter, Measurement.Monitor.Measurement, Compliance Side, Compliance Side, Compliance Side
TestParameter, Measurement.Monitor.RangingMode, LIMITED, LIMITED, LIMITED
TestParameter, Measurement.Monitor.RangeBoundary, 1nA, 1nA, 1nA
TestParameter, Measurement.Monitor.RangeRating, BY FULL RANGE, BY FULL RANGE, BY FULL RANGE
TestParameter, Measurement.Monitor.RangeRatingCoeff, 50, 50, 50
TestParameter, Measurement.Timing.Hold, 1
TestParameter, Measurement.Timing.Delay, 0
TestParameter, Measurement.Adc.HighSpeed.Mode, AUTO
TestParameter, Measurement.Adc.HighSpeed.Coeff, 1
TestParameter, Measurement.Adc.HighResolution.AutoZero, OFF
TestParameter, Measurement.Adc.HighResolution.Mode, AUTO
TestParameter, Measurement.Adc.HighResolution.Coeff, 127
TestParameter, Measurement.WaitTime.Source.Coeff, 1
TestParameter, Measurement.WaitTime.Source.Offset, 0
TestParameter, Measurement.WaitTime.Monitor.Coeff, 1
TestParameter, Measurement.WaitTime.Monitor.Offset, 0
TestParameter, Function.User.Name, AbsId, AbsIs
TestParameter, Function.User.Unit, A, A
TestParameter, Function.User.Definition, abs(Id), abs(Is)
TestParameter, Output.Graph.Enabled, true
TestParameter, Output.Graph.AutoScaling, false
TestParameter, Output.Graph.XAxis.Data, Vd
TestParameter, Output.Graph.XAxis.Scale, Linear
TestParameter, Output.Graph.XAxis.Left, 0.5
TestParameter, Output.Graph.XAxis.Right, -1
TestParameter, Output.Graph.XAxis.RunTimeAutoScale, false
TestParameter, Output.Graph.YAxis.Data, AbsId, AbsIs
TestParameter, Output.Graph.YAxis.Scale, Linear, Linear
TestParameter, Output.Graph.YAxis.Bottom, 0, 0
TestParameter, Output.Graph.YAxis.Top, 1, 1
TestParameter, Output.Graph.YAxis.Group, Group 1, Group 1
TestParameter, Output.Graph.YAxis.RunTimeAutoScale, true, true
TestParameter, Output.List.Data, Vd, Id, Is, Vg, Ig, Vs, AbsId, AbsIs
TestParameter, AutoAnalysis.Interpolation, false
TestParameter, AutoAnalysis.Line1.Enabled, false
TestParameter, AutoAnalysis.Line1.Type, 1
TestParameter, AutoAnalysis.Line1.Fix, True
TestParameter, AutoAnalysis.Line1.YAxis, 0
TestParameter, AutoAnalysis.Line1.Point1.Type, 0
TestParameter, AutoAnalysis.Line1.Point1.XY.X, 
TestParameter, AutoAnalysis.Line1.Point1.XY.Y, 
TestParameter, AutoAnalysis.Line1.Point1.Data.Var, 
TestParameter, AutoAnalysis.Line1.Point1.Data.Condition, 
TestParameter, AutoAnalysis.Line1.Point1.Data.Start, false
TestParameter, AutoAnalysis.Line1.Point1.Data.StartVar, 
TestParameter, AutoAnalysis.Line1.Point1.Data.StartCondition, 
TestParameter, AutoAnalysis.Line1.Point2.Type, 0
TestParameter, AutoAnalysis.Line1.Point2.XY.X, 
TestParameter, AutoAnalysis.Line1.Point2.XY.Y, 
TestParameter, AutoAnalysis.Line1.Point2.Data.Var, 
TestParameter, AutoAnalysis.Line1.Point2.Data.Condition, 
TestParameter, AutoAnalysis.Line1.Point2.Data.Start, false
TestParameter, AutoAnalysis.Line1.Point2.Data.StartVar, 
TestParameter, AutoAnalysis.Line1.Point2.Data.StartCondition, 
TestParameter, AutoAnalysis.Line1.GradientExpr, 0
TestParameter, AutoAnalysis.Line2.Enabled, false
TestParameter, AutoAnalysis.Line2.Type, 1
TestParameter, AutoAnalysis.Line2.Fix, True
TestParameter, AutoAnalysis.Line2.YAxis, 0
TestParameter, AutoAnalysis.Line2.Point1.Type, 0
TestParameter, AutoAnalysis.Line2.Point1.XY.X, 
TestParameter, AutoAnalysis.Line2.Point1.XY.Y, 
TestParameter, AutoAnalysis.Line2.Point1.Data.Var, 
TestParameter, AutoAnalysis.Line2.Point1.Data.Condition, 
TestParameter, AutoAnalysis.Line2.Point1.Data.Start, false
TestParameter, AutoAnalysis.Line2.Point1.Data.StartVar, 
TestParameter, AutoAnalysis.Line2.Point1.Data.StartCondition, 
TestParameter, AutoAnalysis.Line2.Point2.Type, 0
TestParameter, AutoAnalysis.Line2.Point2.XY.X, 
TestParameter, AutoAnalysis.Line2.Point2.XY.Y, 
TestParameter, AutoAnalysis.Line2.Point2.Data.Var, 
TestParameter, AutoAnalysis.Line2.Point2.Data.Condition, 
TestParameter, AutoAnalysis.Line2.Point2.Data.Start, false
TestParameter, AutoAnalysis.Line2.Point2.Data.StartVar, 
TestParameter, AutoAnalysis.Line2.Point2.Data.StartCondition, 
TestParameter, AutoAnalysis.Line2.GradientExpr, 0
TestParameter, AutoAnalysis.Marker.Enabled, false
TestParameter, AutoAnalysis.Marker.Data.Var, 
TestParameter, AutoAnalysis.Marker.Data.Condition, 
TestParameter, AutoAnalysis.Marker.Data.Start, false
TestParameter, AutoAnalysis.Marker.Data.StartVar, 
TestParameter, AutoAnalysis.Marker.Data.StartCondition, 
MetaData, TestRecord.EntryPoint, true
MetaData, TestRecord.RecordTime, 10/23/2019 08:49:05
MetaData, TestRecord.TestTarget, .3um-5
MetaData, TestRecord.IterationIndex, 3
MetaData, TestRecord.Preservation, true
MetaData, TestRecord.Flag, 
MetaData, TestRecord.Remarks, 
MetaData, TestRecord.LinkKey, 4e16bab4-9d1f-4782-ad88-93259584848d
Dimension1, 151, 151, 151, 151, 151, 151, 151, 151
Dimension2, 2, 2, 2, 2, 2, 2, 2, 2
DataName, Vd, Vg, Vs, Id, Is, Ig, AbsId, AbsIs
DataValue, 0, -5, 0, 2.28295E-10, -2.8891700000000005E-10, -1.0373E-11, 2.28295E-10, 2.8891700000000005E-10
DataValue, -0.013300000000000001, -5, 0, -1.0000180000000002E-05, 1.000019E-05, -5.7780000000000006E-12, 1.0000180000000002E-05, 1.000019E-05
DataValue, -0.0267, -5, 0, -1.0000180000000002E-05, 1.0000200000000001E-05, -7.794E-12, 1.0000180000000002E-05, 1.0000200000000001E-05
DataValue, -0.04, -5, 0, -1.0000170000000001E-05, 1.0000200000000001E-05, -5.956E-12, 1.0000170000000001E-05, 1.0000200000000001E-05
DataValue, -0.0533, -5, 0, -1.0000170000000001E-05, 1.0000180000000002E-05, -7.378E-12, 1.0000170000000001E-05, 1.0000180000000002E-05
DataValue, -0.066700000000000009, -5, 0, -1.0000160000000002E-05, 1.0000180000000002E-05, -4.8550000000000006E-12, 1.0000160000000002E-05, 1.0000180000000002E-05
DataValue, -0.08, -5, 0, -1.0000130000000001E-05, 1.0000220000000001E-05, -6.2640000000000008E-12, 1.0000130000000001E-05, 1.0000220000000001E-05
DataValue, -0.093300000000000008, -5, 0, -1.0000160000000002E-05, 1.0000170000000001E-05, -5.4130000000000005E-12, 1.0000160000000002E-05, 1.0000170000000001E-05
DataValue, -0.1067, -5, 0, -1.0000180000000002E-05, 1.000019E-05, -4.94E-12, 1.0000180000000002E-05, 1.000019E-05
DataValue, -0.12000000000000001, -5, 0, -1.0000170000000001E-05, 1.0000170000000001E-05, -6.734E-12, 1.0000170000000001E-05, 1.0000170000000001E-05
DataValue, -0.1333, -5, 0, -1.0000160000000002E-05, 1.000021E-05, -7.348E-12, 1.0000160000000002E-05, 1.000021E-05
DataValue, -0.1467, -5, 0, -1.0000170000000001E-05, 1.0000160000000002E-05, -8.182E-12, 1.0000170000000001E-05, 1.0000160000000002E-05
DataValue, -0.16, -5, 0, -1.0000160000000002E-05, 1.0000200000000001E-05, -9.0650000000000015E-12, 1.0000160000000002E-05, 1.0000200000000001E-05
DataValue, -0.1733, -5, 0, -1.0000180000000002E-05, 1.000019E-05, -7.734E-12, 1.0000180000000002E-05, 1.000019E-05
DataValue, -0.1867, -5, 0, -1.0000160000000002E-05, 1.0000200000000001E-05, -4.2640000000000004E-12, 1.0000160000000002E-05, 1.0000200000000001E-05
DataValue, -0.2, -5, 0, -1.0000170000000001E-05, 1.000021E-05, -3.867E-12, 1.0000170000000001E-05, 1.000021E-05
DataValue, -0.21330000000000002, -5, 0, -1.0000170000000001E-05, 1.0000200000000001E-05, -4.8030000000000004E-12, 1.0000170000000001E-05, 1.0000200000000001E-05
DataValue, -0.2267, -5, 0, -1.0000170000000001E-05, 1.000019E-05, -4.57E-12, 1.0000170000000001E-05, 1.000019E-05
DataValue, -0.24000000000000002, -5, 0, -1.0000160000000002E-05, 1.0000180000000002E-05, -4.33E-12, 1.0000160000000002E-05, 1.0000180000000002E-05
DataValue, -0.2533, -5, 0, -1.0000170000000001E-05, 1.000019E-05, -3.815E-12, 1.0000170000000001E-05, 1.000019E-05
DataValue, -0.2667, -5, 0, -1.0000180000000002E-05, 1.0000180000000002E-05, -3.9660000000000007E-12, 1.0000180000000002E-05, 1.0000180000000002E-05
DataValue, -0.28, -5, 0, -1.0000150000000001E-05, 1.0000200000000001E-05, -2.9940000000000004E-12, 1.0000150000000001E-05, 1.0000200000000001E-05
DataValue, -0.2933, -5, 0, -1.0000170000000001E-05, 1.000021E-05, -3.3730000000000003E-12, 1.0000170000000001E-05, 1.000021E-05
DataValue, -0.30670000000000003, -5, 0, -1.0000170000000001E-05, 1.000019E-05, -2.389E-12, 1.0000170000000001E-05, 1.000019E-05
DataValue, -0.32, -5, 0, -1.0000170000000001E-05, 1.0000200000000001E-05, -2.8550000000000003E-12, 1.0000170000000001E-05, 1.0000200000000001E-05
DataValue, -0.33330000000000004, -5, 0, -1.0000160000000002E-05, 1.000021E-05, -2.474E-12, 1.0000160000000002E-05, 1.000021E-05
DataValue, -0.3467, -5, 0, -1.0000180000000002E-05, 1.0000180000000002E-05, -1.5660000000000002E-12, 1.0000180000000002E-05, 1.0000180000000002E-05
DataValue, -0.36000000000000004, -5, 0, -1.0000160000000002E-05, 1.000019E-05, -1.6220000000000002E-12, 1.0000160000000002E-05, 1.000019E-05
DataValue, -0.3733, -5, 0, -1.0000180000000002E-05, 1.000021E-05, -1.521E-12, 1.0000180000000002E-05, 1.000021E-05
DataValue, -0.38670000000000004, -5, 0, -1.0000150000000001E-05, 1.0000180000000002E-05, -1.3270000000000001E-12, 1.0000150000000001E-05, 1.0000180000000002E-05
DataValue, -0.4, -5, 0, -1.0000200000000001E-05, 1.0000170000000001E-05, -1.533E-12, 1.0000200000000001E-05, 1.0000170000000001E-05
DataValue, -0.4133, -5, 0, -1.0000160000000002E-05, 1.000019E-05, -1.1350000000000001E-12, 1.0000160000000002E-05, 1.000019E-05
DataValue, -0.4267, -5, 0, -1.0000150000000001E-05, 1.000021E-05, -9.8100000000000016E-13, 1.0000150000000001E-05, 1.000021E-05
DataValue, -0.44, -5, 0, -1.0000170000000001E-05, 1.000019E-05, -1.032E-12, 1.0000170000000001E-05, 1.000019E-05
DataValue, -0.45330000000000004, -5, 0, -1.0000180000000002E-05, 1.000019E-05, -8.96E-13, 1.0000180000000002E-05, 1.000019E-05
DataValue, -0.4667, -5, 0, -1.0000160000000002E-05, 1.000021E-05, -8.18E-13, 1.0000160000000002E-05, 1.000021E-05
DataValue, -0.48000000000000004, -5, 0, -1.0000150000000001E-05, 1.0000200000000001E-05, -9.240000000000001E-13, 1.0000150000000001E-05, 1.0000200000000001E-05
DataValue, -0.4933, -5, 0, -1.0000160000000002E-05, 1.0000180000000002E-05, -8.48E-13, 1.0000160000000002E-05, 1.0000180000000002E-05
DataValue, -0.5067, -5, 0, -1.0000160000000002E-05, 1.0000180000000002E-05, -8.23E-13, 1.0000160000000002E-05, 1.0000180000000002E-05
DataValue, -0.52, -5, 0, -1.0000160000000002E-05, 1.000021E-05, -8.7400000000000011E-13, 1.0000160000000002E-05, 1.000021E-05
DataValue, -0.5333, -5, 0, -1.0000180000000002E-05, 1.0000180000000002E-05, -8.770000000000001E-13, 1.0000180000000002E-05, 1.0000180000000002E-05
DataValue, -0.54670000000000007, -5, 0, -1.0000170000000001E-05, 1.0000170000000001E-05, -6.4700000000000007E-13, 1.0000170000000001E-05, 1.0000170000000001E-05
DataValue, -0.56, -5, 0, -1.0000150000000001E-05, 1.0000200000000001E-05, -6.6900000000000008E-13, 1.0000150000000001E-05, 1.0000200000000001E-05
DataValue, -0.5733, -5, 0, -1.0000160000000002E-05, 1.000019E-05, -5.9600000000000009E-13, 1.0000160000000002E-05, 1.000019E-05
DataValue, -0.5867, -5, 0, -1.0000160000000002E-05, 1.000021E-05, -4.69E-13, 1.0000160000000002E-05, 1.000021E-05
DataValue, -0.6, -5, 0, -1.0000160000000002E-05, 1.0000200000000001E-05, -5.13E-13, 1.0000160000000002E-05, 1.0000200000000001E-05
DataValue, -0.61330000000000007, -5, 0, -1.0000160000000002E-05, 1.0000220000000001E-05, -5.13E-13, 1.0000160000000002E-05, 1.0000220000000001E-05
DataValue, -0.6267, -5, 0, -1.0000160000000002E-05, 1.0000200000000001E-05, -4.45E-13, 1.0000160000000002E-05, 1.0000200000000001E-05
DataValue, -0.64, -5, 0, -1.0000160000000002E-05, 1.0000200000000001E-05, -5.0300000000000008E-13, 1.0000160000000002E-05, 1.0000200000000001E-05
DataValue, -0.6533, -5, 0, -1.0000130000000001E-05, 1.000021E-05, -4.3800000000000005E-13, 1.0000130000000001E-05, 1.000021E-05
DataValue, -0.66670000000000007, -5, 0, -1.000014E-05, 1.0000220000000001E-05, -3.4600000000000004E-13, 1.000014E-05, 1.0000220000000001E-05
DataValue, -0.68, -5, 0, -1.0000150000000001E-05, 1.000021E-05, -3.51E-13, 1.0000150000000001E-05, 1.000021E-05
DataValue, -0.6933, -5, 0, -1.0000150000000001E-05, 1.0000200000000001E-05, -2.82E-13, 1.0000150000000001E-05, 1.0000200000000001E-05
DataValue, -0.7067, -5, 0, -1.0000180000000002E-05, 1.0000220000000001E-05, -2.0400000000000001E-13, 1.0000180000000002E-05, 1.0000220000000001E-05
DataValue, -0.72000000000000008, -5, 0, -1.0000150000000001E-05, 1.000021E-05, -2.1400000000000002E-13, 1.0000150000000001E-05, 1.000021E-05
DataValue, -0.73330000000000006, -5, 0, -1.0000160000000002E-05, 1.000021E-05, -1.1500000000000002E-13, 1.0000160000000002E-05, 1.000021E-05
DataValue, -0.7467, -5, 0, -1.0000160000000002E-05, 1.000019E-05, -1.65E-13, 1.0000160000000002E-05, 1.000019E-05
DataValue, -0.76, -5, 0, -1.0000170000000001E-05, 1.0000170000000001E-05, -1.18E-13, 1.0000170000000001E-05, 1.0000170000000001E-05
DataValue, -0.7733, -5, 0, -1.0000160000000002E-05, 1.000019E-05, -8.8E-14, 1.0000160000000002E-05, 1.000019E-05
DataValue, -0.78670000000000007, -5, 0, -1.0000170000000001E-05, 1.0000200000000001E-05, -1.06E-13, 1.0000170000000001E-05, 1.0000200000000001E-05
DataValue, -0.8, -5, 0, -1.0000160000000002E-05, 1.0000200000000001E-05, 2.3000000000000003E-14, 1.0000160000000002E-05, 1.0000200000000001E-05
DataValue, -0.8133, -5, 0, -1.0000150000000001E-05, 1.0000180000000002E-05, 1.3000000000000001E-14, 1.0000150000000001E-05, 1.0000180000000002E-05
DataValue, -0.8267, -5, 0, -1.0000160000000002E-05, 1.0000200000000001E-05, 6.0000000000000005E-15, 1.0000160000000002E-05, 1.0000200000000001E-05
DataValue, -0.84000000000000008, -5, 0, -1.0000150000000001E-05, 1.000019E-05, 8.7000000000000008E-14, 1.0000150000000001E-05, 1.000019E-05
DataValue, -0.85330000000000006, -5, 0, -1.0000170000000001E-05, 1.000021E-05, 1.1E-14, 1.0000170000000001E-05, 1.000021E-05
DataValue, -0.8667, -5, 0, -1.000014E-05, 1.000019E-05, 5.700000000000001E-14, 1.000014E-05, 1.000019E-05
DataValue, -0.88, -5, 0, -1.000014E-05, 1.000021E-05, 8.8E-14, 1.000014E-05, 1.000021E-05
DataValue, -0.89330000000000009, -5, 0, -1.0000170000000001E-05, 1.000021E-05, 6.8E-14, 1.0000170000000001E-05, 1.000021E-05
DataValue, -0.90670000000000006, -5, 0, -1.0000160000000002E-05, 1.0000200000000001E-05, 1.7900000000000002E-13, 1.0000160000000002E-05, 1.0000200000000001E-05
DataValue, -0.92, -5, 0, -1.0000160000000002E-05, 1.0000230000000002E-05, 2.71E-13, 1.0000160000000002E-05, 1.0000230000000002E-05
DataValue, -0.9333, -5, 0, -1.0000160000000002E-05, 1.0000170000000001E-05, 2.5400000000000003E-13, 1.0000160000000002E-05, 1.0000170000000001E-05
DataValue, -0.9467000000000001, -5, 0, -1.000014E-05, 1.0000180000000002E-05, 1.7200000000000002E-13, 1.000014E-05, 1.0000180000000002E-05
DataValue, -0.96000000000000008, -5, 0, -1.0000160000000002E-05, 1.000019E-05, 1.6200000000000002E-13, 1.0000160000000002E-05, 1.000019E-05
DataValue, -0.9733, -5, 0, -1.0000160000000002E-05, 1.000021E-05, 4.0300000000000005E-13, 1.0000160000000002E-05, 1.000021E-05
DataValue, -0.9867, -5, 0, -1.0000170000000001E-05, 1.0000180000000002E-05, 4.1700000000000004E-13, 1.0000170000000001E-05, 1.0000180000000002E-05
DataValue, -1, -5, 0, -1.0000150000000001E-05, 1.0000200000000001E-05, 2.67E-13, 1.0000150000000001E-05, 1.0000200000000001E-05
DataValue, -1.0133, -5, 0, -1.0000180000000002E-05, 1.0000180000000002E-05, 2.49E-13, 1.0000180000000002E-05, 1.0000180000000002E-05
DataValue, -1.0267, -5, 0, -1.0000170000000001E-05, 1.0000200000000001E-05, 3.1200000000000003E-13, 1.0000170000000001E-05, 1.0000200000000001E-05
DataValue, -1.04, -5, 0, -1.0000150000000001E-05, 1.0000200000000001E-05, 4.4000000000000004E-13, 1.0000150000000001E-05, 1.0000200000000001E-05
DataValue, -1.0533000000000001, -5, 0, -1.0000180000000002E-05, 1.0000180000000002E-05, 4.3200000000000003E-13, 1.0000180000000002E-05, 1.0000180000000002E-05
DataValue, -1.0667, -5, 0, -1.0000170000000001E-05, 1.000021E-05, 3.3500000000000004E-13, 1.0000170000000001E-05, 1.000021E-05
DataValue, -1.08, -5, 0, -1.0000170000000001E-05, 1.0000200000000001E-05, 4.8300000000000006E-13, 1.0000170000000001E-05, 1.0000200000000001E-05
DataValue, -1.0933000000000002, -5, 0, -1.0000170000000001E-05, 1.000021E-05, 3.9200000000000005E-13, 1.0000170000000001E-05, 1.000021E-05
DataValue, -1.1067, -5, 0, -1.000014E-05, 1.0000200000000001E-05, 3.06E-13, 1.000014E-05, 1.0000200000000001E-05
DataValue, -1.12, -5, 0, -1.0000180000000002E-05, 1.000019E-05, 4.4400000000000003E-13, 1.0000180000000002E-05, 1.000019E-05
DataValue, -1.1333, -5, 0, -1.0000160000000002E-05, 1.000019E-05, 4.94E-13, 1.0000160000000002E-05, 1.000019E-05
DataValue, -1.1467, -5, 0, -1.0000180000000002E-05, 1.0000200000000001E-05, 3.9000000000000005E-13, 1.0000180000000002E-05, 1.0000200000000001E-05
DataValue, -1.1600000000000001, -5, 0, -1.0000150000000001E-05, 1.000019E-05, 5.43E-13, 1.0000150000000001E-05, 1.000019E-05
DataValue, -1.1733, -5, 0, -1.0000170000000001E-05, 1.0000200000000001E-05, 5.82E-13, 1.0000170000000001E-05, 1.0000200000000001E-05
DataValue, -1.1867, -5, 0, -1.0000160000000002E-05, 1.0000200000000001E-05, 3.7100000000000003E-13, 1.0000160000000002E-05, 1.0000200000000001E-05
DataValue, -1.2, -5, 0, -1.0000150000000001E-05, 1.000019E-05, 5.85E-13, 1.0000150000000001E-05, 1.000019E-05
DataValue, -1.2133, -5, 0, -1.0000160000000002E-05, 1.000019E-05, 4.7800000000000008E-13, 1.0000160000000002E-05, 1.000019E-05
DataValue, -1.2267000000000001, -5, 0, -1.0000160000000002E-05, 1.000019E-05, 5.11E-13, 1.0000160000000002E-05, 1.000019E-05
DataValue, -1.24, -5, 0, -1.0000160000000002E-05, 1.0000200000000001E-05, 6.0200000000000006E-13, 1.0000160000000002E-05, 1.0000200000000001E-05
DataValue, -1.2533, -5, 0, -1.0000150000000001E-05, 1.000021E-05, 9.4500000000000011E-13, 1.0000150000000001E-05, 1.000021E-05
DataValue, -1.2667000000000002, -5, 0, -1.0000170000000001E-05, 1.0000180000000002E-05, 9.4300000000000012E-13, 1.0000170000000001E-05, 1.0000180000000002E-05
DataValue, -1.28, -5, 0, -1.000019E-05, 1.000019E-05, 8.2700000000000011E-13, 1.000019E-05, 1.000019E-05
DataValue, -1.2933000000000001, -5, 0, -1.0000150000000001E-05, 1.0000170000000001E-05, 9.48E-13, 1.0000150000000001E-05, 1.0000170000000001E-05
