
SetupTitle, Transfer Curve - Back Gate
PrimitiveTest, I/V Sweep
TestParameter, Context.MainFrame, B1500A
TestParameter, Channel.UnitType, SMU, SMU, SMU
TestParameter, Channel.Unit, SMU1:HR/AS, SMU4:HR/AS, SMU6:MP
TestParameter, Channel.IName, Id, Is, Ig
TestParameter, Channel.VName, Vd, Vs, Vg
TestParameter, Channel.Mode, V, V, V
TestParameter, Channel.Func, CONST, CONST, VAR1
TestParameter, Channel.Index, 
TestParameter, Channel.Time, 
TestParameter, Measurement.Port.Unit, SMU1:HR/AS, SMU4:HR/AS, SMU6:MP
TestParameter, Measurement.Port.SeriesResistor, NONE, NONE, NONE
TestParameter, Measurement.Port.Filter, ON, ON, ON
TestParameter, Measurement.Port.OutputVoltageComparison, 0, 0, 0
TestParameter, Measurement.Primary.Locus, Single
TestParameter, Measurement.Primary.Scale, LINEAR
TestParameter, Measurement.Primary.Start, -30
TestParameter, Measurement.Primary.Stop, 2
TestParameter, Measurement.Primary.Step, 0.146
TestParameter, Measurement.Primary.Compliance, 1E-05
TestParameter, Measurement.Primary.PowerCompliance, 0
TestParameter, Measurement.Aborting.Condition, CONTINUE AT ANY
TestParameter, Measurement.PostOutput.Value, START
TestParameter, Measurement.PostOutput.Retention, OFF
TestParameter, Measurement.Bias.Source, -2, 0, -30
TestParameter, Measurement.Bias.Compliance, 1E-05, 1E-05, 1E-05
TestParameter, Measurement.Monitor.Unit, SMU1:HR/AS, SMU4:HR/AS, SMU6:MP
TestParameter, Measurement.Monitor.Adc, HR ADC, HR ADC, HR ADC
TestParameter, Measurement.Monitor.Measurement, Compliance Side, Compliance Side, Compliance Side
TestParameter, Measurement.Monitor.RangingMode, LIMITED, LIMITED, FIXED
TestParameter, Measurement.Monitor.RangeBoundary, 10pA, 10pA, 10nA
TestParameter, Measurement.Monitor.RangeRating, BY FULL RANGE, BY FULL RANGE, 
TestParameter, Measurement.Monitor.RangeRatingCoeff, 50, 50, 50
TestParameter, Measurement.Timing.Hold, 0.1
TestParameter, Measurement.Timing.Delay, 0
TestParameter, Measurement.Adc.HighSpeed.Mode, AUTO
TestParameter, Measurement.Adc.HighSpeed.Coeff, 1
TestParameter, Measurement.Adc.HighResolution.AutoZero, OFF
TestParameter, Measurement.Adc.HighResolution.Mode, AUTO
TestParameter, Measurement.Adc.HighResolution.Coeff, 127
TestParameter, Measurement.WaitTime.Source.Coeff, 1
TestParameter, Measurement.WaitTime.Source.Offset, 0
TestParameter, Measurement.WaitTime.Monitor.Coeff, 1
TestParameter, Measurement.WaitTime.Monitor.Offset, 0
TestParameter, Function.User.Name, AbsId, AbsIs
TestParameter, Function.User.Unit, A, A
TestParameter, Function.User.Definition, abs(Id), abs(Is)
TestParameter, Output.Graph.Enabled, true
TestParameter, Output.Graph.AutoScaling, false
TestParameter, Output.Graph.XAxis.Data, Vg
TestParameter, Output.Graph.XAxis.Scale, Linear
TestParameter, Output.Graph.XAxis.Left, -10
TestParameter, Output.Graph.XAxis.Right, 10
TestParameter, Output.Graph.XAxis.RunTimeAutoScale, true
TestParameter, Output.Graph.YAxis.Data, AbsId, AbsIs
TestParameter, Output.Graph.YAxis.Scale, Log, Log
TestParameter, Output.Graph.YAxis.Bottom, 0, 0
TestParameter, Output.Graph.YAxis.Top, 1, 1
TestParameter, Output.Graph.YAxis.Group, Group 1, Group 1
TestParameter, Output.Graph.YAxis.RunTimeAutoScale, true, true
TestParameter, Output.List.Data, Vg, Id, Is, Vd, Vs, Ig, AbsId, AbsIs
TestParameter, AutoAnalysis.Interpolation, false
TestParameter, AutoAnalysis.Line1.Enabled, false
TestParameter, AutoAnalysis.Line1.Type, 1
TestParameter, AutoAnalysis.Line1.Fix, True
TestParameter, AutoAnalysis.Line1.YAxis, 0
TestParameter, AutoAnalysis.Line1.Point1.Type, 0
TestParameter, AutoAnalysis.Line1.Point1.XY.X, 
TestParameter, AutoAnalysis.Line1.Point1.XY.Y, 
TestParameter, AutoAnalysis.Line1.Point1.Data.Var, 
TestParameter, AutoAnalysis.Line1.Point1.Data.Condition, 
TestParameter, AutoAnalysis.Line1.Point1.Data.Start, false
TestParameter, AutoAnalysis.Line1.Point1.Data.StartVar, 
TestParameter, AutoAnalysis.Line1.Point1.Data.StartCondition, 
TestParameter, AutoAnalysis.Line1.Point2.Type, 0
TestParameter, AutoAnalysis.Line1.Point2.XY.X, 
TestParameter, AutoAnalysis.Line1.Point2.XY.Y, 
TestParameter, AutoAnalysis.Line1.Point2.Data.Var, 
TestParameter, AutoAnalysis.Line1.Point2.Data.Condition, 
TestParameter, AutoAnalysis.Line1.Point2.Data.Start, false
TestParameter, AutoAnalysis.Line1.Point2.Data.StartVar, 
TestParameter, AutoAnalysis.Line1.Point2.Data.StartCondition, 
TestParameter, AutoAnalysis.Line1.GradientExpr, 0
TestParameter, AutoAnalysis.Line2.Enabled, false
TestParameter, AutoAnalysis.Line2.Type, 1
TestParameter, AutoAnalysis.Line2.Fix, True
TestParameter, AutoAnalysis.Line2.YAxis, 0
TestParameter, AutoAnalysis.Line2.Point1.Type, 0
TestParameter, AutoAnalysis.Line2.Point1.XY.X, 
TestParameter, AutoAnalysis.Line2.Point1.XY.Y, 
TestParameter, AutoAnalysis.Line2.Point1.Data.Var, 
TestParameter, AutoAnalysis.Line2.Point1.Data.Condition, 
TestParameter, AutoAnalysis.Line2.Point1.Data.Start, false
TestParameter, AutoAnalysis.Line2.Point1.Data.StartVar, 
TestParameter, AutoAnalysis.Line2.Point1.Data.StartCondition, 
TestParameter, AutoAnalysis.Line2.Point2.Type, 0
TestParameter, AutoAnalysis.Line2.Point2.XY.X, 
TestParameter, AutoAnalysis.Line2.Point2.XY.Y, 
TestParameter, AutoAnalysis.Line2.Point2.Data.Var, 
TestParameter, AutoAnalysis.Line2.Point2.Data.Condition, 
TestParameter, AutoAnalysis.Line2.Point2.Data.Start, false
TestParameter, AutoAnalysis.Line2.Point2.Data.StartVar, 
TestParameter, AutoAnalysis.Line2.Point2.Data.StartCondition, 
TestParameter, AutoAnalysis.Line2.GradientExpr, 0
TestParameter, AutoAnalysis.Marker.Enabled, false
TestParameter, AutoAnalysis.Marker.Data.Var, 
TestParameter, AutoAnalysis.Marker.Data.Condition, 
TestParameter, AutoAnalysis.Marker.Data.Start, false
TestParameter, AutoAnalysis.Marker.Data.StartVar, 
TestParameter, AutoAnalysis.Marker.Data.StartCondition, 
MetaData, TestRecord.EntryPoint, true
MetaData, TestRecord.RecordTime, 10/22/2019 13:59:34
MetaData, TestRecord.TestTarget, .4um-5
MetaData, TestRecord.IterationIndex, 12
MetaData, TestRecord.Preservation, true
MetaData, TestRecord.Flag, 
MetaData, TestRecord.Remarks, 
MetaData, TestRecord.LinkKey, 928c1eca-b666-49b5-8b28-d785d42aa744
Dimension1, 221, 221, 221, 221, 221, 221, 221, 221
Dimension2, 1, 1, 1, 1, 1, 1, 1, 1
DataName, Vg, Vd, Vs, Id, Is, Ig, AbsId, AbsIs
DataValue, -30, -2, 0, -2.3637599999999998E-08, 1.5304699999999997E-08, -2.531E-11, 2.3637599999999998E-08, 1.5304699999999997E-08
DataValue, -29.854, -2, 0, -1.25629E-08, 1.37806E-08, -1.221E-11, 1.25629E-08, 1.37806E-08
DataValue, -29.71, -2, 0, -9.4954999999999989E-09, 8.3487E-09, -6.1E-12, 9.4954999999999989E-09, 8.3487E-09
DataValue, -29.564, -2, 0, -7.72626E-09, 7.79762E-09, -7.08E-12, 7.72626E-09, 7.79762E-09
DataValue, -29.418, -2, 0, -7.32653E-09, 7.03948E-09, -5.45E-12, 7.32653E-09, 7.03948E-09
DataValue, -29.272000000000002, -2, 0, -6.70438E-09, 6.08259E-09, -2.42E-12, 6.70438E-09, 6.08259E-09
DataValue, -29.128, -2, 0, -5.76324E-09, 5.51109E-09, -1.97E-12, 5.76324E-09, 5.51109E-09
DataValue, -28.982, -2, 0, -5.69583E-09, 5.81575E-09, -2.34E-12, 5.69583E-09, 5.81575E-09
DataValue, -28.836000000000002, -2, 0, -5.25129E-09, 5.24388E-09, -2.01E-12, 5.25129E-09, 5.24388E-09
DataValue, -28.69, -2, 0, -4.52548E-09, 4.8548E-09, -1.09E-12, 4.52548E-09, 4.8548E-09
DataValue, -28.546, -2, 0, -4.28017E-09, 4.39608E-09, -8.3E-13, 4.28017E-09, 4.39608E-09
DataValue, -28.400000000000002, -2, 0, -4E-09, 3.78337E-09, -4.2E-13, 4E-09, 3.78337E-09
DataValue, -28.254, -2, 0, -3.86451E-09, 4.15196E-09, -1E-13, 3.86451E-09, 4.15196E-09
DataValue, -28.11, -2, 0, -4.02024E-09, 3.9332E-09, 1.8E-13, 4.02024E-09, 3.9332E-09
DataValue, -27.964000000000002, -2, 0, -3.55538E-09, 3.42758E-09, 4.6E-13, 3.55538E-09, 3.42758E-09
DataValue, -27.818, -2, 0, -3.27238E-09, 3.21889E-09, 7.6E-13, 3.27238E-09, 3.21889E-09
DataValue, -27.672, -2, 0, -3.02627E-09, 2.91773E-09, 7.5E-13, 3.02627E-09, 2.91773E-09
DataValue, -27.528000000000002, -2, 0, -2.63667E-09, 2.62966E-09, 8.2E-13, 2.63667E-09, 2.62966E-09
DataValue, -27.382, -2, 0, -2.51792E-09, 2.40683E-09, 1.1E-12, 2.51792E-09, 2.40683E-09
DataValue, -27.236, -2, 0, -2.09285E-09, 2.11467E-09, 1.07E-12, 2.09285E-09, 2.11467E-09
DataValue, -27.09, -2, 0, -2.11833E-09, 2.05031E-09, 2.12E-12, 2.11833E-09, 2.05031E-09
DataValue, -26.946, -2, 0, -1.88384E-09, 1.86419E-09, 2.78E-12, 1.88384E-09, 1.86419E-09
DataValue, -26.8, -2, 0, -1.93E-09, 1.81286E-09, 2.88E-12, 1.93E-09, 1.81286E-09
DataValue, -26.654, -2, 0, -1.66415E-09, 1.628E-09, 2.77E-12, 1.66415E-09, 1.628E-09
DataValue, -26.51, -2, 0, -1.40807E-09, 1.49856E-09, 2.28E-12, 1.40807E-09, 1.49856E-09
DataValue, -26.364, -2, 0, -1.40971E-09, 1.45234E-09, 3.47E-12, 1.40971E-09, 1.45234E-09
DataValue, -26.218, -2, 0, -1.24852E-09, 1.25004E-09, 4.7399999999999996E-12, 1.24852E-09, 1.25004E-09
DataValue, -26.072, -2, 0, -1.15544E-09, 1.20101E-09, 6.02E-12, 1.15544E-09, 1.20101E-09
DataValue, -25.928, -2, 0, -1.04727E-09, 1.0942E-09, 5.6E-12, 1.04727E-09, 1.0942E-09
DataValue, -25.782, -2, 0, -9.6191300000000017E-10, 9.7843E-10, 6.64E-12, 9.6191300000000017E-10, 9.7843E-10
DataValue, -25.636, -2, 0, -9.1330300000000007E-10, 9.0995100000000006E-10, 6.84E-12, 9.1330300000000007E-10, 9.0995100000000006E-10
DataValue, -25.490000000000002, -2, 0, -8.7813200000000006E-10, 8.7643E-10, 6.93E-12, 8.7813200000000006E-10, 8.7643E-10
DataValue, -25.346, -2, 0, -8.0341700000000008E-10, 8.18803E-10, 6.57E-12, 8.0341700000000008E-10, 8.18803E-10
DataValue, -25.2, -2, 0, -6.9140800000000008E-10, 7.0108600000000007E-10, 5.77E-12, 6.9140800000000008E-10, 7.0108600000000007E-10
DataValue, -25.054000000000002, -2, 0, -6.42672E-10, 6.65428E-10, 5.82E-12, 6.42672E-10, 6.65428E-10
DataValue, -24.91, -2, 0, -5.6607000000000009E-10, 5.8094000000000006E-10, 1.169E-11, 5.6607000000000009E-10, 5.8094000000000006E-10
DataValue, -24.764, -2, 0, -5.2696700000000007E-10, 5.3953800000000007E-10, 9.07E-12, 5.2696700000000007E-10, 5.3953800000000007E-10
DataValue, -24.618000000000002, -2, 0, -5.38882E-10, 5.1841200000000009E-10, 1.094E-11, 5.38882E-10, 5.1841200000000009E-10
DataValue, -24.472, -2, 0, -4.99032E-10, 4.98634E-10, 7.93E-12, 4.99032E-10, 4.98634E-10
DataValue, -24.328, -2, 0, -4.50172E-10, 4.6564900000000003E-10, 1.684E-11, 4.50172E-10, 4.6564900000000003E-10
DataValue, -24.182000000000002, -2, 0, -4.6003500000000006E-10, 4.54366E-10, 1.725E-11, 4.6003500000000006E-10, 4.54366E-10
DataValue, -24.036, -2, 0, -4.16399E-10, 4.27819E-10, 1.63E-11, 4.16399E-10, 4.27819E-10
DataValue, -23.89, -2, 0, -3.4726400000000003E-10, 3.45242E-10, 6.54E-12, 3.4726400000000003E-10, 3.45242E-10
DataValue, -23.746000000000002, -2, 0, -3.3054100000000004E-10, 3.4383000000000004E-10, 5.07E-12, 3.3054100000000004E-10, 3.4383000000000004E-10
DataValue, -23.6, -2, 0, -3.67902E-10, 3.29158E-10, 5.63E-12, 3.67902E-10, 3.29158E-10
DataValue, -23.454, -2, 0, -2.75764E-10, 2.82976E-10, 6.2E-12, 2.75764E-10, 2.82976E-10
DataValue, -23.31, -2, 0, -2.70187E-10, 2.8162E-10, 9.52E-12, 2.70187E-10, 2.8162E-10
DataValue, -23.164, -2, 0, -2.5699300000000003E-10, 2.4835200000000004E-10, 1.077E-11, 2.5699300000000003E-10, 2.4835200000000004E-10
DataValue, -23.018, -2, 0, -2.45475E-10, 2.40753E-10, 6.28E-12, 2.45475E-10, 2.40753E-10
DataValue, -22.872, -2, 0, -2.3540000000000003E-10, 2.39608E-10, 6.76E-12, 2.3540000000000003E-10, 2.39608E-10
DataValue, -22.728, -2, 0, -2.0155900000000002E-10, 1.9764300000000003E-10, 8.97E-12, 2.0155900000000002E-10, 1.9764300000000003E-10
DataValue, -22.582, -2, 0, -1.90125E-10, 1.8030100000000002E-10, 1.376E-11, 1.90125E-10, 1.8030100000000002E-10
DataValue, -22.436, -2, 0, -1.8319400000000002E-10, 1.7906600000000003E-10, 9.44E-12, 1.8319400000000002E-10, 1.7906600000000003E-10
DataValue, -22.29, -2, 0, -1.69731E-10, 1.7550700000000002E-10, 1.574E-11, 1.69731E-10, 1.7550700000000002E-10
DataValue, -22.146, -2, 0, -1.50348E-10, 1.4511E-10, 1.229E-11, 1.50348E-10, 1.4511E-10
DataValue, -22, -2, 0, -1.49229E-10, 1.4684800000000002E-10, 1.15E-11, 1.49229E-10, 1.4684800000000002E-10
DataValue, -21.854, -2, 0, -1.19729E-10, 1.17448E-10, 1.0189999999999999E-11, 1.19729E-10, 1.17448E-10
DataValue, -21.71, -2, 0, -1.07571E-10, 1.2288000000000002E-10, 1.227E-11, 1.07571E-10, 1.2288000000000002E-10
DataValue, -21.564, -2, 0, -1.13257E-10, 1.41254E-10, 9.44E-12, 1.13257E-10, 1.41254E-10
DataValue, -21.418, -2, 0, -1.10304E-10, 1.2010200000000002E-10, 8.52E-12, 1.10304E-10, 1.2010200000000002E-10
DataValue, -21.272000000000002, -2, 0, -1.1696800000000002E-10, 1.1659100000000002E-10, 1.195E-11, 1.1696800000000002E-10, 1.1659100000000002E-10
DataValue, -21.128, -2, 0, -1.0377900000000001E-10, 9.79712E-11, 6.22E-12, 1.0377900000000001E-10, 9.79712E-11
DataValue, -20.982, -2, 0, -9.19265E-11, 9.0382199999999993E-11, 3.1E-12, 9.19265E-11, 9.0382199999999993E-11
DataValue, -20.836000000000002, -2, 0, -7.85789E-11, 8.27766E-11, 4.26E-12, 7.85789E-11, 8.27766E-11
DataValue, -20.69, -2, 0, -6.88344E-11, 7.05292E-11, 2.22E-12, 6.88344E-11, 7.05292E-11
DataValue, -20.546, -2, 0, -6.28254E-11, 6.16618E-11, 1.64E-12, 6.28254E-11, 6.16618E-11
DataValue, -20.400000000000002, -2, 0, -6.67459E-11, 6.84774E-11, 1.68E-12, 6.67459E-11, 6.84774E-11
DataValue, -20.254, -2, 0, -5.7048E-11, 5.75645E-11, 2.09E-12, 5.7048E-11, 5.75645E-11
DataValue, -20.11, -2, 0, -4.80246E-11, 5.00186E-11, 2.29E-12, 4.80246E-11, 5.00186E-11
DataValue, -19.964000000000002, -2, 0, -5.1585E-11, 4.77601E-11, 1.77E-12, 5.1585E-11, 4.77601E-11
DataValue, -19.818, -2, 0, -4.08308E-11, 4.28097E-11, 1.05E-12, 4.08308E-11, 4.28097E-11
DataValue, -19.672, -2, 0, -3.64473E-11, 3.99907E-11, 2.72E-12, 3.64473E-11, 3.99907E-11
DataValue, -19.528, -2, 0, -3.69445E-11, 3.58946E-11, 1.72E-12, 3.69445E-11, 3.58946E-11
DataValue, -19.382, -2, 0, -2.99181E-11, 3.17924E-11, 3.58E-12, 2.99181E-11, 3.17924E-11
DataValue, -19.236, -2, 0, -2.99474E-11, 3.86854E-11, 1.12E-12, 2.99474E-11, 3.86854E-11
DataValue, -19.09, -2, 0, -4.67565E-11, 5.37925E-11, 1.12E-12, 4.67565E-11, 5.37925E-11
DataValue, -18.946, -2, 0, -3.4724E-11, 3.23997E-11, 2.14E-12, 3.4724E-11, 3.23997E-11
DataValue, -18.8, -2, 0, -3.30731E-11, 3.39815E-11, 1.48E-12, 3.30731E-11, 3.39815E-11
DataValue, -18.654, -2, 0, -2.75788E-11, 2.79122E-11, 1.14E-12, 2.75788E-11, 2.79122E-11
DataValue, -18.51, -2, 0, -2.7304599999999998E-11, 2.40968E-11, 1.79E-12, 2.7304599999999998E-11, 2.40968E-11
DataValue, -18.364, -2, 0, -1.98566E-11, 2.27194E-11, 1.94E-12, 1.98566E-11, 2.27194E-11
DataValue, -18.218, -2, 0, -1.82639E-11, 1.66322E-11, 1.22E-12, 1.82639E-11, 1.66322E-11
DataValue, -18.072, -2, 0, -1.40708E-11, 1.56738E-11, 9.6E-13, 1.40708E-11, 1.56738E-11
DataValue, -17.928, -2, 0, -1.4947599999999998E-11, 1.55508E-11, 9.5E-13, 1.4947599999999998E-11, 1.55508E-11
DataValue, -17.782, -2, 0, -1.46485E-11, 1.33678E-11, 8.6E-13, 1.46485E-11, 1.33678E-11
DataValue, -17.636, -2, 0, -1.05954E-11, 1.07878E-11, 7.3E-13, 1.05954E-11, 1.07878E-11
DataValue, -17.490000000000002, -2, 0, -1.00429E-11, 7.91541E-12, 7.6E-13, 1.00429E-11, 7.91541E-12
DataValue, -17.346, -2, 0, -4.9726299999999996E-12, 4.9437499999999994E-12, 2.3E-13, 4.9726299999999996E-12, 4.9437499999999994E-12
DataValue, -17.2, -2, 0, -3.68561E-12, 3.6356299999999995E-12, 5.1E-13, 3.68561E-12, 3.6356299999999995E-12
DataValue, -17.054000000000002, -2, 0, -3.22426E-12, 3.3970199999999996E-12, 4.2E-13, 3.22426E-12, 3.3970199999999996E-12
DataValue, -16.91, -2, 0, -3.23791E-12, 3.2083499999999998E-12, 9.5E-13, 3.23791E-12, 3.2083499999999998E-12
DataValue, -16.764, -2, 0, -2.5605E-12, 2.6058699999999997E-12, 8.6E-13, 2.5605E-12, 2.6058699999999997E-12
DataValue, -16.618000000000002, -2, 0, -2.20054E-12, 2.2033399999999998E-12, 2.49E-12, 2.20054E-12, 2.2033399999999998E-12
DataValue, -16.472, -2, 0, -1.99996E-12, 1.73089E-12, 2.03E-12, 1.99996E-12, 1.73089E-12
DataValue, -16.328, -2, 0, -1.54823E-12, 1.57434E-12, 1.14E-12, 1.54823E-12, 1.57434E-12
DataValue, -16.182, -2, 0, -1.4790299999999998E-12, 1.3151799999999999E-12, 6.9E-13, 1.4790299999999998E-12, 1.3151799999999999E-12
DataValue, -16.036, -2, 0, -1.2531199999999998E-12, 1.24858E-12, 1.44E-12, 1.2531199999999998E-12, 1.24858E-12
DataValue, -15.89, -2, 0, -1.07789E-12, 1.00641E-12, 1.22E-12, 1.07789E-12, 1.00641E-12
DataValue, -15.746, -2, 0, -9.0703999999999994E-13, 7.6715999999999993E-13, 7.6E-13, 9.0703999999999994E-13, 7.6715999999999993E-13
DataValue, -15.6, -2, 0, -7.5446999999999991E-13, 7.2207E-13, 1.95E-12, 7.5446999999999991E-13, 7.2207E-13
DataValue, -15.454, -2, 0, -7.4125999999999991E-13, 5.9797999999999994E-13, 8.4E-13, 7.4125999999999991E-13, 5.9797999999999994E-13
DataValue, -15.31, -2, 0, -6.388199999999999E-13, 5.4763E-13, 1.9E-12, 6.388199999999999E-13, 5.4763E-13
DataValue, -15.164, -2, 0, -5.129E-13, 5.0244999999999994E-13, 1E-12, 5.129E-13, 5.0244999999999994E-13
DataValue, -15.018, -2, 0, -4.9286E-13, 4.4657E-13, 7.8E-13, 4.9286E-13, 4.4657E-13
DataValue, -14.872, -2, 0, -4.1163999999999995E-13, 3.5835E-13, 1.6E-12, 4.1163999999999995E-13, 3.5835E-13
DataValue, -14.728, -2, 0, -3.7968999999999997E-13, 2.8199E-13, 1.46E-12, 3.7968999999999997E-13, 2.8199E-13
DataValue, -14.582, -2, 0, -3.4228E-13, 2.9419E-13, 8.5E-13, 3.4228E-13, 2.9419E-13
DataValue, -14.436, -2, 0, -2.8500999999999996E-13, 2.2495999999999998E-13, 1.18E-12, 2.8500999999999996E-13, 2.2495999999999998E-13
DataValue, -14.290000000000001, -2, 0, -2.4325999999999997E-13, 1.8556E-13, 1.87E-12, 2.4325999999999997E-13, 1.8556E-13
DataValue, -14.146, -2, 0, -2.2891E-13, 1.7011999999999999E-13, 1.02E-12, 2.2891E-13, 1.7011999999999999E-13
DataValue, -14, -2, 0, -1.9666999999999998E-13, 1.0803999999999999E-13, 1.04E-12, 1.9666999999999998E-13, 1.0803999999999999E-13
DataValue, -13.854000000000001, -2, 0, -1.6897999999999998E-13, 1.0667999999999999E-13, 9.2E-13, 1.6897999999999998E-13, 1.0667999999999999E-13
DataValue, -13.71, -2, 0, -1.3011E-13, 7.823999999999999E-14, 1.41E-12, 1.3011E-13, 7.823999999999999E-14
DataValue, -13.564, -2, 0, -1.2547999999999999E-13, 6.9099999999999991E-14, 1.28E-12, 1.2547999999999999E-13, 6.9099999999999991E-14
DataValue, -13.418000000000001, -2, 0, -1.0549999999999999E-13, 4.4309999999999996E-14, 1.33E-12, 1.0549999999999999E-13, 4.4309999999999996E-14
DataValue, -13.272, -2, 0, -1.1061999999999999E-13, 3.8809999999999994E-14, 1.65E-12, 1.1061999999999999E-13, 3.8809999999999994E-14
DataValue, -13.128, -2, 0, -9.191E-14, 2.5439999999999997E-14, 1.05E-12, 9.191E-14, 2.5439999999999997E-14
DataValue, -12.982000000000001, -2, 0, -7.136999999999999E-14, 1.3939999999999999E-14, 1.48E-12, 7.136999999999999E-14, 1.3939999999999999E-14
DataValue, -12.836, -2, 0, -6.956E-14, 5.8699999999999995E-15, 1.08E-12, 6.956E-14, 5.8699999999999995E-15
DataValue, -12.69, -2, 0, -6.502E-14, -9.3999999999999989E-16, 1.33E-12, 6.502E-14, 9.3999999999999989E-16
DataValue, -12.546, -2, 0, -5.739E-14, -7.69E-15, 1.01E-12, 5.739E-14, 7.69E-15
DataValue, -12.4, -2, 0, -5.742E-14, -1.484E-14, 1.28E-12, 5.742E-14, 1.484E-14
DataValue, -12.254, -2, 0, -5.2059999999999995E-14, -1.1679999999999999E-14, 1.12E-12, 5.2059999999999995E-14, 1.1679999999999999E-14
DataValue, -12.11, -2, 0, -6.222E-14, -2.9729999999999997E-14, 1.07E-12, 6.222E-14, 2.9729999999999997E-14
DataValue, -11.964, -2, 0, -5.48E-14, -2.9599999999999995E-14, 1.35E-12, 5.48E-14, 2.9599999999999995E-14
DataValue, -11.818, -2, 0, -3.554E-14, -2.3659999999999997E-14, 1.42E-12, 3.554E-14, 2.3659999999999997E-14
DataValue, -11.672, -2, 0, -3.652E-14, -2.405E-14, 1.13E-12, 3.652E-14, 2.405E-14
DataValue, -11.528, -2, 0, -2.8479999999999996E-14, -1.932E-14, 1.12E-12, 2.8479999999999996E-14, 1.932E-14
DataValue, -11.382, -2, 0, -4.04E-14, -2.7569999999999996E-14, 1.07E-12, 4.04E-14, 2.7569999999999996E-14
