
SetupTitle, Transfer Curve - Back Gate
PrimitiveTest, I/V Sweep
TestParameter, Context.MainFrame, B1500A
TestParameter, Channel.UnitType, SMU, SMU, SMU
TestParameter, Channel.Unit, SMU1:HR/AS, SMU4:HR/AS, SMU6:MP
TestParameter, Channel.IName, Id, Is, Ig
TestParameter, Channel.VName, Vd, Vs, Vg
TestParameter, Channel.Mode, V, V, V
TestParameter, Channel.Func, CONST, CONST, VAR1
TestParameter, Channel.Index, 
TestParameter, Channel.Time, 
TestParameter, Measurement.Port.Unit, SMU1:HR/AS, SMU4:HR/AS, SMU6:MP
TestParameter, Measurement.Port.SeriesResistor, NONE, NONE, NONE
TestParameter, Measurement.Port.Filter, ON, ON, ON
TestParameter, Measurement.Port.OutputVoltageComparison, 0, 0, 0
TestParameter, Measurement.Primary.Locus, Single
TestParameter, Measurement.Primary.Scale, LINEAR
TestParameter, Measurement.Primary.Start, -30
TestParameter, Measurement.Primary.Stop, 2
TestParameter, Measurement.Primary.Step, 0.146
TestParameter, Measurement.Primary.Compliance, 1E-05
TestParameter, Measurement.Primary.PowerCompliance, 0
TestParameter, Measurement.Aborting.Condition, CONTINUE AT ANY
TestParameter, Measurement.PostOutput.Value, START
TestParameter, Measurement.PostOutput.Retention, OFF
TestParameter, Measurement.Bias.Source, -2, 0, -30
TestParameter, Measurement.Bias.Compliance, 1E-05, 1E-05, 1E-05
TestParameter, Measurement.Monitor.Unit, SMU1:HR/AS, SMU4:HR/AS, SMU6:MP
TestParameter, Measurement.Monitor.Adc, HR ADC, HR ADC, HR ADC
TestParameter, Measurement.Monitor.Measurement, Compliance Side, Compliance Side, Compliance Side
TestParameter, Measurement.Monitor.RangingMode, LIMITED, LIMITED, FIXED
TestParameter, Measurement.Monitor.RangeBoundary, 10pA, 10pA, 10nA
TestParameter, Measurement.Monitor.RangeRating, BY FULL RANGE, BY FULL RANGE, 
TestParameter, Measurement.Monitor.RangeRatingCoeff, 50, 50, 50
TestParameter, Measurement.Timing.Hold, 0.1
TestParameter, Measurement.Timing.Delay, 0
TestParameter, Measurement.Adc.HighSpeed.Mode, AUTO
TestParameter, Measurement.Adc.HighSpeed.Coeff, 1
TestParameter, Measurement.Adc.HighResolution.AutoZero, OFF
TestParameter, Measurement.Adc.HighResolution.Mode, AUTO
TestParameter, Measurement.Adc.HighResolution.Coeff, 127
TestParameter, Measurement.WaitTime.Source.Coeff, 1
TestParameter, Measurement.WaitTime.Source.Offset, 0
TestParameter, Measurement.WaitTime.Monitor.Coeff, 1
TestParameter, Measurement.WaitTime.Monitor.Offset, 0
TestParameter, Function.User.Name, AbsId, AbsIs
TestParameter, Function.User.Unit, A, A
TestParameter, Function.User.Definition, abs(Id), abs(Is)
TestParameter, Output.Graph.Enabled, true
TestParameter, Output.Graph.AutoScaling, false
TestParameter, Output.Graph.XAxis.Data, Vg
TestParameter, Output.Graph.XAxis.Scale, Linear
TestParameter, Output.Graph.XAxis.Left, -10
TestParameter, Output.Graph.XAxis.Right, 10
TestParameter, Output.Graph.XAxis.RunTimeAutoScale, true
TestParameter, Output.Graph.YAxis.Data, AbsId, AbsIs
TestParameter, Output.Graph.YAxis.Scale, Log, Log
TestParameter, Output.Graph.YAxis.Bottom, 0, 0
TestParameter, Output.Graph.YAxis.Top, 1, 1
TestParameter, Output.Graph.YAxis.Group, Group 1, Group 1
TestParameter, Output.Graph.YAxis.RunTimeAutoScale, true, true
TestParameter, Output.List.Data, Vg, Id, Is, Vd, Vs, Ig, AbsId, AbsIs
TestParameter, AutoAnalysis.Interpolation, false
TestParameter, AutoAnalysis.Line1.Enabled, false
TestParameter, AutoAnalysis.Line1.Type, 1
TestParameter, AutoAnalysis.Line1.Fix, True
TestParameter, AutoAnalysis.Line1.YAxis, 0
TestParameter, AutoAnalysis.Line1.Point1.Type, 0
TestParameter, AutoAnalysis.Line1.Point1.XY.X, 
TestParameter, AutoAnalysis.Line1.Point1.XY.Y, 
TestParameter, AutoAnalysis.Line1.Point1.Data.Var, 
TestParameter, AutoAnalysis.Line1.Point1.Data.Condition, 
TestParameter, AutoAnalysis.Line1.Point1.Data.Start, false
TestParameter, AutoAnalysis.Line1.Point1.Data.StartVar, 
TestParameter, AutoAnalysis.Line1.Point1.Data.StartCondition, 
TestParameter, AutoAnalysis.Line1.Point2.Type, 0
TestParameter, AutoAnalysis.Line1.Point2.XY.X, 
TestParameter, AutoAnalysis.Line1.Point2.XY.Y, 
TestParameter, AutoAnalysis.Line1.Point2.Data.Var, 
TestParameter, AutoAnalysis.Line1.Point2.Data.Condition, 
TestParameter, AutoAnalysis.Line1.Point2.Data.Start, false
TestParameter, AutoAnalysis.Line1.Point2.Data.StartVar, 
TestParameter, AutoAnalysis.Line1.Point2.Data.StartCondition, 
TestParameter, AutoAnalysis.Line1.GradientExpr, 0
TestParameter, AutoAnalysis.Line2.Enabled, false
TestParameter, AutoAnalysis.Line2.Type, 1
TestParameter, AutoAnalysis.Line2.Fix, True
TestParameter, AutoAnalysis.Line2.YAxis, 0
TestParameter, AutoAnalysis.Line2.Point1.Type, 0
TestParameter, AutoAnalysis.Line2.Point1.XY.X, 
TestParameter, AutoAnalysis.Line2.Point1.XY.Y, 
TestParameter, AutoAnalysis.Line2.Point1.Data.Var, 
TestParameter, AutoAnalysis.Line2.Point1.Data.Condition, 
TestParameter, AutoAnalysis.Line2.Point1.Data.Start, false
TestParameter, AutoAnalysis.Line2.Point1.Data.StartVar, 
TestParameter, AutoAnalysis.Line2.Point1.Data.StartCondition, 
TestParameter, AutoAnalysis.Line2.Point2.Type, 0
TestParameter, AutoAnalysis.Line2.Point2.XY.X, 
TestParameter, AutoAnalysis.Line2.Point2.XY.Y, 
TestParameter, AutoAnalysis.Line2.Point2.Data.Var, 
TestParameter, AutoAnalysis.Line2.Point2.Data.Condition, 
TestParameter, AutoAnalysis.Line2.Point2.Data.Start, false
TestParameter, AutoAnalysis.Line2.Point2.Data.StartVar, 
TestParameter, AutoAnalysis.Line2.Point2.Data.StartCondition, 
TestParameter, AutoAnalysis.Line2.GradientExpr, 0
TestParameter, AutoAnalysis.Marker.Enabled, false
TestParameter, AutoAnalysis.Marker.Data.Var, 
TestParameter, AutoAnalysis.Marker.Data.Condition, 
TestParameter, AutoAnalysis.Marker.Data.Start, false
TestParameter, AutoAnalysis.Marker.Data.StartVar, 
TestParameter, AutoAnalysis.Marker.Data.StartCondition, 
MetaData, TestRecord.EntryPoint, true
MetaData, TestRecord.RecordTime, 10/22/2019 13:47:11
MetaData, TestRecord.TestTarget, 1um-5
MetaData, TestRecord.IterationIndex, 11
MetaData, TestRecord.Preservation, true
MetaData, TestRecord.Flag, 
MetaData, TestRecord.Remarks, 
MetaData, TestRecord.LinkKey, edb8e319-58cf-40a2-b794-e18413c6112d
Dimension1, 221, 221, 221, 221, 221, 221, 221, 221
Dimension2, 1, 1, 1, 1, 1, 1, 1, 1
DataName, Vg, Vd, Vs, Id, Is, Ig, AbsId, AbsIs
DataValue, -30, -2, 0, -5.69702E-09, 4.86604E-09, -4.31E-11, 5.69702E-09, 4.86604E-09
DataValue, -29.854, -2, 0, -3.97648E-09, 3.81099E-09, -2.107E-11, 3.97648E-09, 3.81099E-09
DataValue, -29.71, -2, 0, -3.76103E-09, 3.84908E-09, -1.718E-11, 3.76103E-09, 3.84908E-09
DataValue, -29.564, -2, 0, -3.1431199999999998E-09, 2.90159E-09, -9.65E-12, 3.1431199999999998E-09, 2.90159E-09
DataValue, -29.418, -2, 0, -2.71158E-09, 2.85404E-09, -9.04E-12, 2.71158E-09, 2.85404E-09
DataValue, -29.272000000000002, -2, 0, -2.32548E-09, 2.87463E-09, -7.13E-12, 2.32548E-09, 2.87463E-09
DataValue, -29.128, -2, 0, -2.4576E-09, 2.46422E-09, -6.17E-12, 2.4576E-09, 2.46422E-09
DataValue, -28.982, -2, 0, -2.34504E-09, 2.50472E-09, -4.91E-12, 2.34504E-09, 2.50472E-09
DataValue, -28.836000000000002, -2, 0, -2.44086E-09, 2.16088E-09, -3.69E-12, 2.44086E-09, 2.16088E-09
DataValue, -28.69, -2, 0, -2.10043E-09, 2.11593E-09, -3.08E-12, 2.10043E-09, 2.11593E-09
DataValue, -28.546, -2, 0, -1.8776E-09, 1.84039E-09, -2.84E-12, 1.8776E-09, 1.84039E-09
DataValue, -28.400000000000002, -2, 0, -1.77236E-09, 1.76102E-09, -2.69E-12, 1.77236E-09, 1.76102E-09
DataValue, -28.254, -2, 0, -1.66468E-09, 1.61974E-09, -2.56E-12, 1.66468E-09, 1.61974E-09
DataValue, -28.11, -2, 0, -1.58817E-09, 1.46643E-09, -1.65E-12, 1.58817E-09, 1.46643E-09
DataValue, -27.964000000000002, -2, 0, -1.42641E-09, 1.45123E-09, -1.27E-12, 1.42641E-09, 1.45123E-09
DataValue, -27.818, -2, 0, -1.4931E-09, 1.44694E-09, -1.49E-12, 1.4931E-09, 1.44694E-09
DataValue, -27.672, -2, 0, -1.34319E-09, 1.28495E-09, -8.1E-13, 1.34319E-09, 1.28495E-09
DataValue, -27.528000000000002, -2, 0, -1.32891E-09, 1.26325E-09, -4.7E-13, 1.32891E-09, 1.26325E-09
DataValue, -27.382, -2, 0, -1.20938E-09, 1.10788E-09, -2.5E-13, 1.20938E-09, 1.10788E-09
DataValue, -27.236, -2, 0, -1.2327E-09, 1.25421E-09, -1E-13, 1.2327E-09, 1.25421E-09
DataValue, -27.09, -2, 0, -1.11423E-09, 1.09422E-09, 1.2E-13, 1.11423E-09, 1.09422E-09
DataValue, -26.946, -2, 0, -9.6463E-10, 1.00141E-09, 3.9E-13, 9.6463E-10, 1.00141E-09
DataValue, -26.8, -2, 0, -8.4020400000000009E-10, 8.9757E-10, 3.6E-13, 8.4020400000000009E-10, 8.9757E-10
DataValue, -26.654, -2, 0, -8.41304E-10, 8.23249E-10, 6.2E-13, 8.41304E-10, 8.23249E-10
DataValue, -26.51, -2, 0, -7.08315E-10, 7.2367300000000007E-10, 7.9E-13, 7.08315E-10, 7.2367300000000007E-10
DataValue, -26.364, -2, 0, -7.94092E-10, 7.04959E-10, 1.12E-12, 7.94092E-10, 7.04959E-10
DataValue, -26.218, -2, 0, -6.7510100000000009E-10, 7.0449E-10, 1.48E-12, 6.7510100000000009E-10, 7.0449E-10
DataValue, -26.072, -2, 0, -6.74673E-10, 6.7165000000000005E-10, 1.51E-12, 6.74673E-10, 6.7165000000000005E-10
DataValue, -25.928, -2, 0, -5.98953E-10, 5.80214E-10, 1.94E-12, 5.98953E-10, 5.80214E-10
DataValue, -25.782, -2, 0, -4.97706E-10, 5.36156E-10, 1.85E-12, 4.97706E-10, 5.36156E-10
DataValue, -25.636, -2, 0, -5.4488800000000005E-10, 5.2766E-10, 1.92E-12, 5.4488800000000005E-10, 5.2766E-10
DataValue, -25.490000000000002, -2, 0, -4.4394900000000005E-10, 4.7593E-10, 2.59E-12, 4.4394900000000005E-10, 4.7593E-10
DataValue, -25.346, -2, 0, -4.6436000000000004E-10, 3.9457400000000005E-10, 2.9E-12, 4.6436000000000004E-10, 3.9457400000000005E-10
DataValue, -25.2, -2, 0, -3.7611900000000003E-10, 3.9626700000000004E-10, 4.34E-12, 3.7611900000000003E-10, 3.9626700000000004E-10
DataValue, -25.054000000000002, -2, 0, -3.5027E-10, 3.5868400000000003E-10, 4.14E-12, 3.5027E-10, 3.5868400000000003E-10
DataValue, -24.91, -2, 0, -3.6230100000000004E-10, 3.39922E-10, 4.9E-12, 3.6230100000000004E-10, 3.39922E-10
DataValue, -24.764, -2, 0, -2.8977800000000004E-10, 3.1980900000000005E-10, 4.99E-12, 2.8977800000000004E-10, 3.1980900000000005E-10
DataValue, -24.618000000000002, -2, 0, -2.7618800000000004E-10, 2.72278E-10, 5.84E-12, 2.7618800000000004E-10, 2.72278E-10
DataValue, -24.472, -2, 0, -2.50258E-10, 2.6183200000000003E-10, 6.27E-12, 2.50258E-10, 2.6183200000000003E-10
DataValue, -24.328, -2, 0, -2.7911600000000003E-10, 2.6563600000000004E-10, 6.46E-12, 2.7911600000000003E-10, 2.6563600000000004E-10
DataValue, -24.182000000000002, -2, 0, -2.4352400000000004E-10, 2.4504200000000003E-10, 5.33E-12, 2.4352400000000004E-10, 2.4504200000000003E-10
DataValue, -24.036, -2, 0, -2.1648400000000002E-10, 2.40405E-10, 5.74E-12, 2.1648400000000002E-10, 2.40405E-10
DataValue, -23.89, -2, 0, -2.1029100000000001E-10, 2.0074500000000001E-10, 6.43E-12, 2.1029100000000001E-10, 2.0074500000000001E-10
DataValue, -23.746000000000002, -2, 0, -1.91029E-10, 2.08287E-10, 5.38E-12, 1.91029E-10, 2.08287E-10
DataValue, -23.6, -2, 0, -2.1179900000000003E-10, 1.9856E-10, 5.92E-12, 2.1179900000000003E-10, 1.9856E-10
DataValue, -23.454, -2, 0, -1.54288E-10, 1.6894400000000002E-10, 5.17E-12, 1.54288E-10, 1.6894400000000002E-10
DataValue, -23.31, -2, 0, -1.5787900000000002E-10, 1.56455E-10, 6.34E-12, 1.5787900000000002E-10, 1.56455E-10
DataValue, -23.164, -2, 0, -1.42934E-10, 1.72398E-10, 6.39E-12, 1.42934E-10, 1.72398E-10
DataValue, -23.018, -2, 0, -1.57642E-10, 1.5457000000000002E-10, 7.43E-12, 1.57642E-10, 1.5457000000000002E-10
DataValue, -22.872, -2, 0, -1.5980400000000002E-10, 1.5409400000000002E-10, 8.48E-12, 1.5980400000000002E-10, 1.5409400000000002E-10
DataValue, -22.728, -2, 0, -1.4312000000000002E-10, 1.48955E-10, 8.75E-12, 1.4312000000000002E-10, 1.48955E-10
DataValue, -22.582, -2, 0, -1.3439000000000001E-10, 1.2580900000000002E-10, 8.7699999999999992E-12, 1.3439000000000001E-10, 1.2580900000000002E-10
DataValue, -22.436, -2, 0, -1.2572E-10, 1.33433E-10, 9.37E-12, 1.2572E-10, 1.33433E-10
DataValue, -22.29, -2, 0, -1.22655E-10, 1.20122E-10, 8.5E-12, 1.22655E-10, 1.20122E-10
DataValue, -22.146, -2, 0, -1.11256E-10, 9.3870000000000008E-11, 9.08E-12, 1.11256E-10, 9.3870000000000008E-11
DataValue, -22, -2, 0, -1.02656E-10, 1.0882400000000001E-10, 9.19E-12, 1.02656E-10, 1.0882400000000001E-10
DataValue, -21.854, -2, 0, -9.41668E-11, 9.9478000000000011E-11, 6.9E-12, 9.41668E-11, 9.9478000000000011E-11
DataValue, -21.71, -2, 0, -1.1245229999999999E-10, 1.1123300000000001E-10, 6.14E-12, 1.1245229999999999E-10, 1.1123300000000001E-10
DataValue, -21.564, -2, 0, -1.1257800000000001E-10, 1.0582200000000001E-10, 4.69E-12, 1.1257800000000001E-10, 1.0582200000000001E-10
DataValue, -21.418, -2, 0, -9.8060000000000008E-11, 9.6346000000000013E-11, 4.75E-12, 9.8060000000000008E-11, 9.6346000000000013E-11
DataValue, -21.272000000000002, -2, 0, -7.90123E-11, 5.37901E-11, 2.06E-12, 7.90123E-11, 5.37901E-11
DataValue, -21.128, -2, 0, -4.78371E-11, 4.89864E-11, 2.32E-12, 4.78371E-11, 4.89864E-11
DataValue, -20.982, -2, 0, -4.96633E-11, 5.00172E-11, 3.08E-12, 4.96633E-11, 5.00172E-11
DataValue, -20.836000000000002, -2, 0, -4.2172E-11, 4.14795E-11, 2.56E-12, 4.2172E-11, 4.14795E-11
DataValue, -20.69, -2, 0, -3.47078E-11, 4.43095E-11, 1.7E-12, 3.47078E-11, 4.43095E-11
DataValue, -20.546, -2, 0, -4.7265399999999996E-11, 4.7272E-11, 1.82E-12, 4.7265399999999996E-11, 4.7272E-11
DataValue, -20.400000000000002, -2, 0, -4.33857E-11, 4.2423899999999997E-11, 3.14E-12, 4.33857E-11, 4.2423899999999997E-11
DataValue, -20.254, -2, 0, -3.74385E-11, 4.07282E-11, 2.13E-12, 3.74385E-11, 4.07282E-11
DataValue, -20.11, -2, 0, -3.4717299999999996E-11, 3.42418E-11, 1.81E-12, 3.4717299999999996E-11, 3.42418E-11
DataValue, -19.964000000000002, -2, 0, -3.21185E-11, 3.07399E-11, 1.48E-12, 3.21185E-11, 3.07399E-11
DataValue, -19.818, -2, 0, -2.94606E-11, 3.14215E-11, 1.82E-12, 2.94606E-11, 3.14215E-11
DataValue, -19.672, -2, 0, -2.75235E-11, 2.77709E-11, 1.87E-12, 2.75235E-11, 2.77709E-11
DataValue, -19.528, -2, 0, -2.31159E-11, 2.38013E-11, 1.68E-12, 2.31159E-11, 2.38013E-11
DataValue, -19.382, -2, 0, -2.03765E-11, 2.04412E-11, 2.05E-12, 2.03765E-11, 2.04412E-11
DataValue, -19.236, -2, 0, -1.74888E-11, 1.7354899999999998E-11, 1.26E-12, 1.74888E-11, 1.7354899999999998E-11
DataValue, -19.09, -2, 0, -1.61079E-11, 1.55808E-11, 1.29E-12, 1.61079E-11, 1.55808E-11
DataValue, -18.946, -2, 0, -1.3028899999999999E-11, 1.38372E-11, 1.68E-12, 1.3028899999999999E-11, 1.38372E-11
DataValue, -18.8, -2, 0, -1.20953E-11, 1.23146E-11, 2.04E-12, 1.20953E-11, 1.23146E-11
DataValue, -18.654, -2, 0, -1.13675E-11, 1.14898E-11, 1.7E-12, 1.13675E-11, 1.14898E-11
DataValue, -18.51, -2, 0, -9.918299999999999E-12, 1.0670089999999999E-11, 1.29E-12, 9.918299999999999E-12, 1.0670089999999999E-11
DataValue, -18.364, -2, 0, -7.6566099999999988E-12, 7.6645299999999986E-12, 7.5E-13, 7.6566099999999988E-12, 7.6645299999999986E-12
DataValue, -18.218, -2, 0, -6.7533999999999991E-12, 6.9685899999999991E-12, 1.6E-13, 6.7533999999999991E-12, 6.9685899999999991E-12
DataValue, -18.072, -2, 0, -6.0741899999999992E-12, 6.71905E-12, 3.1E-13, 6.0741899999999992E-12, 6.71905E-12
DataValue, -17.928, -2, 0, -6.0936799999999991E-12, 5.8573199999999995E-12, 7.6E-13, 6.0936799999999991E-12, 5.8573199999999995E-12
DataValue, -17.782, -2, 0, -5.9531299999999993E-12, 6.04722E-12, 6.6E-13, 5.9531299999999993E-12, 6.04722E-12
DataValue, -17.636, -2, 0, -5.0146899999999995E-12, 4.7691799999999993E-12, 9.8E-13, 5.0146899999999995E-12, 4.7691799999999993E-12
DataValue, -17.490000000000002, -2, 0, -4.3284299999999996E-12, 4.17352E-12, 1.06E-12, 4.3284299999999996E-12, 4.17352E-12
DataValue, -17.346, -2, 0, -4.32543E-12, 4.22607E-12, 5.1E-13, 4.32543E-12, 4.22607E-12
DataValue, -17.2, -2, 0, -4.05902E-12, 4.00984E-12, 7E-13, 4.05902E-12, 4.00984E-12
DataValue, -17.054000000000002, -2, 0, -3.7353299999999996E-12, 3.7317499999999993E-12, 9.1E-13, 3.7353299999999996E-12, 3.7317499999999993E-12
DataValue, -16.91, -2, 0, -3.4801899999999995E-12, 3.2696999999999997E-12, 8.4E-13, 3.4801899999999995E-12, 3.2696999999999997E-12
DataValue, -16.764, -2, 0, -2.9211599999999996E-12, 2.82132E-12, 1.14E-12, 2.9211599999999996E-12, 2.82132E-12
DataValue, -16.618000000000002, -2, 0, -2.5808699999999997E-12, 2.4659599999999997E-12, 8.4E-13, 2.5808699999999997E-12, 2.4659599999999997E-12
DataValue, -16.472, -2, 0, -1.9794899999999997E-12, 2.2174E-12, 1.16E-12, 1.9794899999999997E-12, 2.2174E-12
DataValue, -16.328, -2, 0, -1.99822E-12, 1.9203899999999997E-12, 9.2E-13, 1.99822E-12, 1.9203899999999997E-12
DataValue, -16.182, -2, 0, -1.58491E-12, 1.5584499999999999E-12, 1.42E-12, 1.58491E-12, 1.5584499999999999E-12
DataValue, -16.036, -2, 0, -1.4794799999999999E-12, 1.34819E-12, 9.6E-13, 1.4794799999999999E-12, 1.34819E-12
DataValue, -15.89, -2, 0, -1.154E-12, 1.13435E-12, 8.2E-13, 1.154E-12, 1.13435E-12
DataValue, -15.746, -2, 0, -1.1014E-12, 1.01551E-12, 1.06E-12, 1.1014E-12, 1.01551E-12
DataValue, -15.6, -2, 0, -8.9061999999999989E-13, 8.0849999999999994E-13, 8E-13, 8.9061999999999989E-13, 8.0849999999999994E-13
DataValue, -15.454, -2, 0, -7.1103E-13, 7.0528999999999992E-13, 9.4E-13, 7.1103E-13, 7.0528999999999992E-13
DataValue, -15.31, -2, 0, -9.011799999999999E-13, 8.4205999999999995E-13, 8.9E-13, 9.011799999999999E-13, 8.4205999999999995E-13
DataValue, -15.164, -2, 0, -7.6052E-13, 6.7472E-13, 7.5E-13, 7.6052E-13, 6.7472E-13
DataValue, -15.018, -2, 0, -6.8528E-13, 6.0845999999999991E-13, 1.21E-12, 6.8528E-13, 6.0845999999999991E-13
DataValue, -14.872, -2, 0, -5.491899999999999E-13, 5.0742E-13, 8.5E-13, 5.491899999999999E-13, 5.0742E-13
DataValue, -14.728, -2, 0, -5.1738E-13, 4.7490999999999994E-13, 1.03E-12, 5.1738E-13, 4.7490999999999994E-13
DataValue, -14.582, -2, 0, -4.0291999999999996E-13, 3.4559999999999996E-13, 1.32E-12, 4.0291999999999996E-13, 3.4559999999999996E-13
DataValue, -14.436, -2, 0, -3.2032E-13, 2.4378E-13, 1.21E-12, 3.2032E-13, 2.4378E-13
DataValue, -14.290000000000001, -2, 0, -2.7146999999999995E-13, 2.2212999999999998E-13, 1.2E-12, 2.7146999999999995E-13, 2.2212999999999998E-13
DataValue, -14.146, -2, 0, -2.1966999999999999E-13, 1.6772E-13, 8.6E-13, 2.1966999999999999E-13, 1.6772E-13
DataValue, -14, -2, 0, -1.8923E-13, 1.2658E-13, 1.29E-12, 1.8923E-13, 1.2658E-13
DataValue, -13.854000000000001, -2, 0, -1.5836E-13, 8.728E-14, 1.4E-12, 1.5836E-13, 8.728E-14
DataValue, -13.71, -2, 0, -2.538E-13, 1.0172999999999999E-13, 1.69E-12, 2.538E-13, 1.0172999999999999E-13
DataValue, -13.564, -2, 0, -1.0964999999999999E-13, 1.885E-14, 2.32E-12, 1.0964999999999999E-13, 1.885E-14
DataValue, -13.418000000000001, -2, 0, -9.5909999999999992E-14, 1.545E-14, 1.13E-12, 9.5909999999999992E-14, 1.545E-14
DataValue, -13.272, -2, 0, -7.652999999999999E-14, 9.66E-15, 1.23E-12, 7.652999999999999E-14, 9.66E-15
DataValue, -13.128, -2, 0, -6.371E-14, 2.62E-15, 1.13E-12, 6.371E-14, 2.62E-15
DataValue, -12.982000000000001, -2, 0, -6.466E-14, -6.3199999999999994E-15, 1.54E-12, 6.466E-14, 6.3199999999999994E-15
DataValue, -12.836, -2, 0, -6.014E-14, -1.308E-14, 1.45E-12, 6.014E-14, 1.308E-14
DataValue, -12.69, -2, 0, -5.737E-14, -1.796E-14, 1.72E-12, 5.737E-14, 1.796E-14
DataValue, -12.546, -2, 0, -6.165E-14, -1.625E-14, 1.46E-12, 6.165E-14, 1.625E-14
DataValue, -12.4, -2, 0, -4.042E-14, -1.118E-14, 1.11E-12, 4.042E-14, 1.118E-14
DataValue, -12.254, -2, 0, -3.7889999999999997E-14, -1.688E-14, 1.01E-12, 3.7889999999999997E-14, 1.688E-14
DataValue, -12.11, -2, 0, -4.067E-14, -2.4499999999999997E-14, 1.39E-12, 4.067E-14, 2.4499999999999997E-14
DataValue, -11.964, -2, 0, -4.7039999999999994E-14, -2.006E-14, 1.35E-12, 4.7039999999999994E-14, 2.006E-14
DataValue, -11.818, -2, 0, -4.8189999999999995E-14, -3.376E-14, 1.83E-12, 4.8189999999999995E-14, 3.376E-14
DataValue, -11.672, -2, 0, -3.9999999999999994E-14, -3.642E-14, 1.33E-12, 3.9999999999999994E-14, 3.642E-14
