
SetupTitle, Transfer Curve - Back Gate
PrimitiveTest, I/V Sweep
TestParameter, Context.MainFrame, B1500A
TestParameter, Channel.UnitType, SMU, SMU, SMU
TestParameter, Channel.Unit, SMU1:HR/AS, SMU4:HR/AS, SMU6:MP
TestParameter, Channel.IName, Id, Is, Ig
TestParameter, Channel.VName, Vd, Vs, Vg
TestParameter, Channel.Mode, V, V, V
TestParameter, Channel.Func, CONST, CONST, VAR1
TestParameter, Channel.Index, 
TestParameter, Channel.Time, 
TestParameter, Measurement.Port.Unit, SMU1:HR/AS, SMU4:HR/AS, SMU6:MP
TestParameter, Measurement.Port.SeriesResistor, NONE, NONE, NONE
TestParameter, Measurement.Port.Filter, ON, ON, ON
TestParameter, Measurement.Port.OutputVoltageComparison, 0, 0, 0
TestParameter, Measurement.Primary.Locus, Single
TestParameter, Measurement.Primary.Scale, LINEAR
TestParameter, Measurement.Primary.Start, -30
TestParameter, Measurement.Primary.Stop, 2
TestParameter, Measurement.Primary.Step, 0.146
TestParameter, Measurement.Primary.Compliance, 1E-05
TestParameter, Measurement.Primary.PowerCompliance, 0
TestParameter, Measurement.Aborting.Condition, CONTINUE AT ANY
TestParameter, Measurement.PostOutput.Value, START
TestParameter, Measurement.PostOutput.Retention, OFF
TestParameter, Measurement.Bias.Source, -2, 0, -30
TestParameter, Measurement.Bias.Compliance, 1E-05, 1E-05, 1E-05
TestParameter, Measurement.Monitor.Unit, SMU1:HR/AS, SMU4:HR/AS, SMU6:MP
TestParameter, Measurement.Monitor.Adc, HR ADC, HR ADC, HR ADC
TestParameter, Measurement.Monitor.Measurement, Compliance Side, Compliance Side, Compliance Side
TestParameter, Measurement.Monitor.RangingMode, LIMITED, LIMITED, FIXED
TestParameter, Measurement.Monitor.RangeBoundary, 10pA, 10pA, 10nA
TestParameter, Measurement.Monitor.RangeRating, BY FULL RANGE, BY FULL RANGE, 
TestParameter, Measurement.Monitor.RangeRatingCoeff, 50, 50, 50
TestParameter, Measurement.Timing.Hold, 0.1
TestParameter, Measurement.Timing.Delay, 0
TestParameter, Measurement.Adc.HighSpeed.Mode, AUTO
TestParameter, Measurement.Adc.HighSpeed.Coeff, 1
TestParameter, Measurement.Adc.HighResolution.AutoZero, OFF
TestParameter, Measurement.Adc.HighResolution.Mode, AUTO
TestParameter, Measurement.Adc.HighResolution.Coeff, 127
TestParameter, Measurement.WaitTime.Source.Coeff, 1
TestParameter, Measurement.WaitTime.Source.Offset, 0
TestParameter, Measurement.WaitTime.Monitor.Coeff, 1
TestParameter, Measurement.WaitTime.Monitor.Offset, 0
TestParameter, Function.User.Name, AbsId, AbsIs
TestParameter, Function.User.Unit, A, A
TestParameter, Function.User.Definition, abs(Id), abs(Is)
TestParameter, Output.Graph.Enabled, true
TestParameter, Output.Graph.AutoScaling, false
TestParameter, Output.Graph.XAxis.Data, Vg
TestParameter, Output.Graph.XAxis.Scale, Linear
TestParameter, Output.Graph.XAxis.Left, -10
TestParameter, Output.Graph.XAxis.Right, 10
TestParameter, Output.Graph.XAxis.RunTimeAutoScale, true
TestParameter, Output.Graph.YAxis.Data, AbsId, AbsIs
TestParameter, Output.Graph.YAxis.Scale, Log, Log
TestParameter, Output.Graph.YAxis.Bottom, 0, 0
TestParameter, Output.Graph.YAxis.Top, 1, 1
TestParameter, Output.Graph.YAxis.Group, Group 1, Group 1
TestParameter, Output.Graph.YAxis.RunTimeAutoScale, true, true
TestParameter, Output.List.Data, Vg, Id, Is, Vd, Vs, Ig, AbsId, AbsIs
TestParameter, AutoAnalysis.Interpolation, false
TestParameter, AutoAnalysis.Line1.Enabled, false
TestParameter, AutoAnalysis.Line1.Type, 1
TestParameter, AutoAnalysis.Line1.Fix, True
TestParameter, AutoAnalysis.Line1.YAxis, 0
TestParameter, AutoAnalysis.Line1.Point1.Type, 0
TestParameter, AutoAnalysis.Line1.Point1.XY.X, 
TestParameter, AutoAnalysis.Line1.Point1.XY.Y, 
TestParameter, AutoAnalysis.Line1.Point1.Data.Var, 
TestParameter, AutoAnalysis.Line1.Point1.Data.Condition, 
TestParameter, AutoAnalysis.Line1.Point1.Data.Start, false
TestParameter, AutoAnalysis.Line1.Point1.Data.StartVar, 
TestParameter, AutoAnalysis.Line1.Point1.Data.StartCondition, 
TestParameter, AutoAnalysis.Line1.Point2.Type, 0
TestParameter, AutoAnalysis.Line1.Point2.XY.X, 
TestParameter, AutoAnalysis.Line1.Point2.XY.Y, 
TestParameter, AutoAnalysis.Line1.Point2.Data.Var, 
TestParameter, AutoAnalysis.Line1.Point2.Data.Condition, 
TestParameter, AutoAnalysis.Line1.Point2.Data.Start, false
TestParameter, AutoAnalysis.Line1.Point2.Data.StartVar, 
TestParameter, AutoAnalysis.Line1.Point2.Data.StartCondition, 
TestParameter, AutoAnalysis.Line1.GradientExpr, 0
TestParameter, AutoAnalysis.Line2.Enabled, false
TestParameter, AutoAnalysis.Line2.Type, 1
TestParameter, AutoAnalysis.Line2.Fix, True
TestParameter, AutoAnalysis.Line2.YAxis, 0
TestParameter, AutoAnalysis.Line2.Point1.Type, 0
TestParameter, AutoAnalysis.Line2.Point1.XY.X, 
TestParameter, AutoAnalysis.Line2.Point1.XY.Y, 
TestParameter, AutoAnalysis.Line2.Point1.Data.Var, 
TestParameter, AutoAnalysis.Line2.Point1.Data.Condition, 
TestParameter, AutoAnalysis.Line2.Point1.Data.Start, false
TestParameter, AutoAnalysis.Line2.Point1.Data.StartVar, 
TestParameter, AutoAnalysis.Line2.Point1.Data.StartCondition, 
TestParameter, AutoAnalysis.Line2.Point2.Type, 0
TestParameter, AutoAnalysis.Line2.Point2.XY.X, 
TestParameter, AutoAnalysis.Line2.Point2.XY.Y, 
TestParameter, AutoAnalysis.Line2.Point2.Data.Var, 
TestParameter, AutoAnalysis.Line2.Point2.Data.Condition, 
TestParameter, AutoAnalysis.Line2.Point2.Data.Start, false
TestParameter, AutoAnalysis.Line2.Point2.Data.StartVar, 
TestParameter, AutoAnalysis.Line2.Point2.Data.StartCondition, 
TestParameter, AutoAnalysis.Line2.GradientExpr, 0
TestParameter, AutoAnalysis.Marker.Enabled, false
TestParameter, AutoAnalysis.Marker.Data.Var, 
TestParameter, AutoAnalysis.Marker.Data.Condition, 
TestParameter, AutoAnalysis.Marker.Data.Start, false
TestParameter, AutoAnalysis.Marker.Data.StartVar, 
TestParameter, AutoAnalysis.Marker.Data.StartCondition, 
MetaData, TestRecord.EntryPoint, true
MetaData, TestRecord.RecordTime, 10/22/2019 14:12:08
MetaData, TestRecord.TestTarget, .3um-4
MetaData, TestRecord.IterationIndex, 14
MetaData, TestRecord.Preservation, true
MetaData, TestRecord.Flag, 
MetaData, TestRecord.Remarks, 
MetaData, TestRecord.LinkKey, cf07913e-e92f-4e9d-ad07-248d0d959a5c
Dimension1, 221, 221, 221, 221, 221, 221, 221, 221
Dimension2, 1, 1, 1, 1, 1, 1, 1, 1
DataName, Vg, Vd, Vs, Id, Is, Ig, AbsId, AbsIs
DataValue, -30, -2, 0, -1.4601499999999998E-08, 1.1403599999999999E-08, -2.788E-11, 1.4601499999999998E-08, 1.1403599999999999E-08
DataValue, -29.854, -2, 0, -9.9042999999999986E-09, 9.583399999999999E-09, -2.2E-11, 9.9042999999999986E-09, 9.583399999999999E-09
DataValue, -29.71, -2, 0, -7.97608E-09, 8.35312E-09, -1.327E-11, 7.97608E-09, 8.35312E-09
DataValue, -29.564, -2, 0, -7.11412E-09, 7.41942E-09, -6.11E-12, 7.11412E-09, 7.41942E-09
DataValue, -29.418, -2, 0, -5.83675E-09, 5.42479E-09, -7.44E-12, 5.83675E-09, 5.42479E-09
DataValue, -29.272000000000002, -2, 0, -4.94033E-09, 4.64028E-09, -4.83E-12, 4.94033E-09, 4.64028E-09
DataValue, -29.128, -2, 0, -4.69278E-09, 4.56888E-09, -5.82E-12, 4.69278E-09, 4.56888E-09
DataValue, -28.982, -2, 0, -4.4831E-09, 4.60371E-09, -1.25E-12, 4.4831E-09, 4.60371E-09
DataValue, -28.836000000000002, -2, 0, -4.0768E-09, 3.83438E-09, -8.2E-13, 4.0768E-09, 3.83438E-09
DataValue, -28.69, -2, 0, -3.4894E-09, 3.72723E-09, -7.4E-13, 3.4894E-09, 3.72723E-09
DataValue, -28.546, -2, 0, -3.29735E-09, 3.10734E-09, -4.6E-13, 3.29735E-09, 3.10734E-09
DataValue, -28.400000000000002, -2, 0, -2.83424E-09, 2.49595E-09, -9E-14, 2.83424E-09, 2.49595E-09
DataValue, -28.254, -2, 0, -2.54601E-09, 2.57665E-09, 1.5E-13, 2.54601E-09, 2.57665E-09
DataValue, -28.11, -2, 0, -2.26828E-09, 2.26713E-09, 3E-13, 2.26828E-09, 2.26713E-09
DataValue, -27.964000000000002, -2, 0, -2.15231E-09, 2.20977E-09, 4.5E-13, 2.15231E-09, 2.20977E-09
DataValue, -27.818, -2, 0, -1.93661E-09, 1.97194E-09, 6.3E-13, 1.93661E-09, 1.97194E-09
DataValue, -27.672, -2, 0, -1.80364E-09, 1.70962E-09, 9.3E-13, 1.80364E-09, 1.70962E-09
DataValue, -27.528000000000002, -2, 0, -1.67042E-09, 1.73039E-09, 1.24E-12, 1.67042E-09, 1.73039E-09
DataValue, -27.382, -2, 0, -1.48771E-09, 1.41765E-09, 1.39E-12, 1.48771E-09, 1.41765E-09
DataValue, -27.236, -2, 0, -1.2176E-09, 1.27805E-09, 1.49E-12, 1.2176E-09, 1.27805E-09
DataValue, -27.09, -2, 0, -1.27225E-09, 1.20852E-09, 1.48E-12, 1.27225E-09, 1.20852E-09
DataValue, -26.946, -2, 0, -1.10597E-09, 1.10246E-09, 1.88E-12, 1.10597E-09, 1.10246E-09
DataValue, -26.8, -2, 0, -9.708E-10, 9.7382E-10, 2.76E-12, 9.708E-10, 9.7382E-10
DataValue, -26.654, -2, 0, -9.4097E-10, 9.2442900000000008E-10, 2.41E-12, 9.4097E-10, 9.2442900000000008E-10
DataValue, -26.51, -2, 0, -8.37594E-10, 9.10188E-10, 3.63E-12, 8.37594E-10, 9.10188E-10
DataValue, -26.364, -2, 0, -8.615750000000001E-10, 8.3985300000000008E-10, 3.81E-12, 8.615750000000001E-10, 8.3985300000000008E-10
DataValue, -26.218, -2, 0, -7.8178300000000009E-10, 7.4375400000000008E-10, 4.96E-12, 7.8178300000000009E-10, 7.4375400000000008E-10
DataValue, -26.072, -2, 0, -7.1377700000000007E-10, 7.65877E-10, 4.46E-12, 7.1377700000000007E-10, 7.65877E-10
DataValue, -25.928, -2, 0, -6.868420000000001E-10, 6.8075400000000009E-10, 5.39E-12, 6.868420000000001E-10, 6.8075400000000009E-10
DataValue, -25.782, -2, 0, -6.55039E-10, 5.7990500000000008E-10, 3.72E-12, 6.55039E-10, 5.7990500000000008E-10
DataValue, -25.636, -2, 0, -5.2530200000000005E-10, 4.91886E-10, 5.49E-12, 5.2530200000000005E-10, 4.91886E-10
DataValue, -25.490000000000002, -2, 0, -4.53094E-10, 4.7286200000000008E-10, 4.65E-12, 4.53094E-10, 4.7286200000000008E-10
DataValue, -25.346, -2, 0, -4.50285E-10, 4.5436E-10, 4.69E-12, 4.50285E-10, 4.5436E-10
DataValue, -25.2, -2, 0, -4.3534E-10, 4.27259E-10, 7.87E-12, 4.3534E-10, 4.27259E-10
DataValue, -25.054000000000002, -2, 0, -3.9531900000000003E-10, 3.91725E-10, 8.15E-12, 3.9531900000000003E-10, 3.91725E-10
DataValue, -24.91, -2, 0, -3.39946E-10, 3.1480500000000003E-10, 6.35E-12, 3.39946E-10, 3.1480500000000003E-10
DataValue, -24.764, -2, 0, -3.09101E-10, 3.21872E-10, 9.11E-12, 3.09101E-10, 3.21872E-10
DataValue, -24.618000000000002, -2, 0, -3.1540200000000003E-10, 2.91373E-10, 9.54E-12, 3.1540200000000003E-10, 2.91373E-10
DataValue, -24.472, -2, 0, -2.6308600000000004E-10, 2.8780200000000005E-10, 1.254E-11, 2.6308600000000004E-10, 2.8780200000000005E-10
DataValue, -24.328, -2, 0, -2.53271E-10, 2.58775E-10, 1.183E-11, 2.53271E-10, 2.58775E-10
DataValue, -24.182000000000002, -2, 0, -2.54338E-10, 2.58454E-10, 1.078E-11, 2.54338E-10, 2.58454E-10
DataValue, -24.036, -2, 0, -2.33283E-10, 2.1856300000000002E-10, 7.76E-12, 2.33283E-10, 2.1856300000000002E-10
DataValue, -23.89, -2, 0, -1.8737600000000002E-10, 1.9236900000000002E-10, 7.95E-12, 1.8737600000000002E-10, 1.9236900000000002E-10
DataValue, -23.746000000000002, -2, 0, -1.7206300000000002E-10, 1.5361E-10, 8.74E-12, 1.7206300000000002E-10, 1.5361E-10
DataValue, -23.6, -2, 0, -1.49561E-10, 1.54473E-10, 9.49E-12, 1.49561E-10, 1.54473E-10
DataValue, -23.454, -2, 0, -1.4754700000000002E-10, 1.4939700000000002E-10, 1.597E-11, 1.4754700000000002E-10, 1.4939700000000002E-10
DataValue, -23.31, -2, 0, -1.49811E-10, 1.6398E-10, 1.338E-11, 1.49811E-10, 1.6398E-10
DataValue, -23.164, -2, 0, -1.49863E-10, 1.36507E-10, 1.633E-11, 1.49863E-10, 1.36507E-10
DataValue, -23.018, -2, 0, -1.39301E-10, 1.4346700000000002E-10, 1.269E-11, 1.39301E-10, 1.4346700000000002E-10
DataValue, -22.872, -2, 0, -1.34697E-10, 1.35326E-10, 9.4799999999999992E-12, 1.34697E-10, 1.35326E-10
DataValue, -22.728, -2, 0, -1.1852300000000002E-10, 1.18376E-10, 7.28E-12, 1.1852300000000002E-10, 1.18376E-10
DataValue, -22.582, -2, 0, -1.0762000000000001E-10, 1.1280400000000001E-10, 9.47E-12, 1.0762000000000001E-10, 1.1280400000000001E-10
DataValue, -22.436, -2, 0, -1.1461400000000001E-10, 1.07782E-10, 9.13E-12, 1.1461400000000001E-10, 1.07782E-10
DataValue, -22.29, -2, 0, -8.59746E-11, 9.7503000000000012E-11, 5.26E-12, 8.59746E-11, 9.7503000000000012E-11
DataValue, -22.146, -2, 0, -8.0214E-11, 6.59651E-11, 2.15E-12, 8.0214E-11, 6.59651E-11
DataValue, -22, -2, 0, -6.44123E-11, 7.19471E-11, 2.66E-12, 6.44123E-11, 7.19471E-11
DataValue, -21.854, -2, 0, -6.99976E-11, 7.05657E-11, 1.9E-12, 6.99976E-11, 7.05657E-11
DataValue, -21.71, -2, 0, -6.0856499999999993E-11, 5.9256E-11, 2.98E-12, 6.0856499999999993E-11, 5.9256E-11
DataValue, -21.564, -2, 0, -5.4271599999999997E-11, 5.50384E-11, 2.45E-12, 5.4271599999999997E-11, 5.50384E-11
DataValue, -21.418, -2, 0, -5.2300099999999996E-11, 5.29563E-11, 2.78E-12, 5.2300099999999996E-11, 5.29563E-11
DataValue, -21.272000000000002, -2, 0, -4.7748699999999996E-11, 4.53405E-11, 1.76E-12, 4.7748699999999996E-11, 4.53405E-11
DataValue, -21.128, -2, 0, -4.18136E-11, 4.42546E-11, 1.22E-12, 4.18136E-11, 4.42546E-11
DataValue, -20.982, -2, 0, -4.22449E-11, 4.12014E-11, 1.37E-12, 4.22449E-11, 4.12014E-11
DataValue, -20.836000000000002, -2, 0, -4.0233699999999996E-11, 3.93973E-11, 1.43E-12, 4.0233699999999996E-11, 3.93973E-11
DataValue, -20.69, -2, 0, -3.62015E-11, 3.74676E-11, 1.66E-12, 3.62015E-11, 3.74676E-11
DataValue, -20.546, -2, 0, -3.49E-11, 3.22126E-11, 1.77E-12, 3.49E-11, 3.22126E-11
DataValue, -20.400000000000002, -2, 0, -3.09765E-11, 3.04857E-11, 2.42E-12, 3.09765E-11, 3.04857E-11
DataValue, -20.254, -2, 0, -2.45423E-11, 2.5642999999999998E-11, 2.12E-12, 2.45423E-11, 2.5642999999999998E-11
DataValue, -20.11, -2, 0, -2.17127E-11, 2.15118E-11, 1.43E-12, 2.17127E-11, 2.15118E-11
DataValue, -19.964000000000002, -2, 0, -2.04089E-11, 2.06123E-11, 1.66E-12, 2.04089E-11, 2.06123E-11
DataValue, -19.818, -2, 0, -1.94051E-11, 1.8704999999999998E-11, 2.66E-12, 1.94051E-11, 1.8704999999999998E-11
DataValue, -19.672, -2, 0, -1.63042E-11, 1.50102E-11, 1.77E-12, 1.63042E-11, 1.50102E-11
DataValue, -19.528, -2, 0, -1.3955E-11, 1.48812E-11, 1.74E-12, 1.3955E-11, 1.48812E-11
DataValue, -19.382, -2, 0, -1.34938E-11, 1.24197E-11, 1.68E-12, 1.34938E-11, 1.24197E-11
DataValue, -19.236, -2, 0, -1.11061E-11, 1.1334199999999999E-11, 2.39E-12, 1.11061E-11, 1.1334199999999999E-11
DataValue, -19.09, -2, 0, -1.00176E-11, 1.054591E-11, 8.4E-13, 1.00176E-11, 1.054591E-11
DataValue, -18.946, -2, 0, -9.31028E-12, 9.39548E-12, 7.4E-13, 9.31028E-12, 9.39548E-12
DataValue, -18.8, -2, 0, -8.4745999999999986E-12, 8.6531899999999986E-12, 5.6E-13, 8.4745999999999986E-12, 8.6531899999999986E-12
DataValue, -18.654, -2, 0, -7.33463E-12, 6.7686199999999995E-12, 2.4E-13, 7.33463E-12, 6.7686199999999995E-12
DataValue, -18.51, -2, 0, -5.7786599999999995E-12, 5.8460999999999995E-12, 3.4E-13, 5.7786599999999995E-12, 5.8460999999999995E-12
DataValue, -18.364, -2, 0, -5.0728899999999994E-12, 4.9461499999999995E-12, 3.3E-13, 5.0728899999999994E-12, 4.9461499999999995E-12
DataValue, -18.218, -2, 0, -4.5902399999999992E-12, 4.7404599999999994E-12, 4.4E-13, 4.5902399999999992E-12, 4.7404599999999994E-12
DataValue, -18.072, -2, 0, -4.03331E-12, 4.1328599999999994E-12, 6.4E-13, 4.03331E-12, 4.1328599999999994E-12
DataValue, -17.928, -2, 0, -4.06743E-12, 4.3053599999999993E-12, 1.22E-12, 4.06743E-12, 4.3053599999999993E-12
DataValue, -17.782, -2, 0, -4.24554E-12, 4.1746E-12, 5E-13, 4.24554E-12, 4.1746E-12
DataValue, -17.636, -2, 0, -3.4189099999999996E-12, 3.2728799999999997E-12, 9.1E-13, 3.4189099999999996E-12, 3.2728799999999997E-12
DataValue, -17.490000000000002, -2, 0, -2.7516699999999997E-12, 2.49316E-12, 5.3E-13, 2.7516699999999997E-12, 2.49316E-12
DataValue, -17.346, -2, 0, -2.52744E-12, 2.7226899999999996E-12, 7.5E-13, 2.52744E-12, 2.7226899999999996E-12
DataValue, -17.2, -2, 0, -2.3318999999999998E-12, 2.1604199999999998E-12, 1.22E-12, 2.3318999999999998E-12, 2.1604199999999998E-12
DataValue, -17.054000000000002, -2, 0, -1.6924E-12, 1.7263299999999998E-12, 1.09E-12, 1.6924E-12, 1.7263299999999998E-12
DataValue, -16.91, -2, 0, -1.5710799999999998E-12, 1.55081E-12, 1.02E-12, 1.5710799999999998E-12, 1.55081E-12
DataValue, -16.764, -2, 0, -1.7762499999999998E-12, 1.4175699999999998E-12, 1.2E-12, 1.7762499999999998E-12, 1.4175699999999998E-12
DataValue, -16.618000000000002, -2, 0, -1.5379099999999999E-12, 1.7797899999999998E-12, 1.77E-12, 1.5379099999999999E-12, 1.7797899999999998E-12
DataValue, -16.472, -2, 0, -1.33511E-12, 1.2321599999999999E-12, 1.02E-12, 1.33511E-12, 1.2321599999999999E-12
DataValue, -16.328, -2, 0, -1.0339699999999999E-12, 8.9636999999999995E-13, 1.29E-12, 1.0339699999999999E-12, 8.9636999999999995E-13
DataValue, -16.182, -2, 0, -9.5147E-13, 8.9455999999999988E-13, 1.24E-12, 9.5147E-13, 8.9455999999999988E-13
DataValue, -16.036, -2, 0, -1.2855099999999998E-12, 8.9913999999999994E-13, 1.21E-12, 1.2855099999999998E-12, 8.9913999999999994E-13
DataValue, -15.89, -2, 0, -7.9687999999999993E-13, 6.7874999999999991E-13, 1.22E-12, 7.9687999999999993E-13, 6.7874999999999991E-13
DataValue, -15.746, -2, 0, -6.7078999999999991E-13, 6.3267E-13, 9.4E-13, 6.7078999999999991E-13, 6.3267E-13
DataValue, -15.6, -2, 0, -5.4459E-13, 4.9945E-13, 7.9E-13, 5.4459E-13, 4.9945E-13
DataValue, -15.454, -2, 0, -4.6243E-13, 3.8285E-13, 1.26E-12, 4.6243E-13, 3.8285E-13
DataValue, -15.31, -2, 0, -4.2177999999999995E-13, 2.5463999999999996E-13, 1.57E-12, 4.2177999999999995E-13, 2.5463999999999996E-13
DataValue, -15.164, -2, 0, -2.5347E-13, 1.786E-13, 1.03E-12, 2.5347E-13, 1.786E-13
DataValue, -15.018, -2, 0, -2.0832E-13, 1.4289999999999998E-13, 1.5E-12, 2.0832E-13, 1.4289999999999998E-13
DataValue, -14.872, -2, 0, -1.8795E-13, 1.3125E-13, 1.08E-12, 1.8795E-13, 1.3125E-13
DataValue, -14.728, -2, 0, -1.7642E-13, 1.1689999999999999E-13, 1.09E-12, 1.7642E-13, 1.1689999999999999E-13
DataValue, -14.582, -2, 0, -1.4341999999999998E-13, 6.9009999999999988E-14, 1.06E-12, 1.4341999999999998E-13, 6.9009999999999988E-14
DataValue, -14.436, -2, 0, -1.3386E-13, 7.144E-14, 1.72E-12, 1.3386E-13, 7.144E-14
DataValue, -14.290000000000001, -2, 0, -1.1611E-13, 6.999E-14, 9.6E-13, 1.1611E-13, 6.999E-14
DataValue, -14.146, -2, 0, -1.7421E-13, 7.8859999999999992E-14, 9.9E-13, 1.7421E-13, 7.8859999999999992E-14
DataValue, -14, -2, 0, -1.6524999999999998E-13, 8.159E-14, 1.38E-12, 1.6524999999999998E-13, 8.159E-14
DataValue, -13.854000000000001, -2, 0, -9.253999999999999E-14, 3.6359999999999996E-14, 1.01E-12, 9.253999999999999E-14, 3.6359999999999996E-14
DataValue, -13.71, -2, 0, -1.3418999999999998E-13, 3.7899999999999995E-14, 1.6E-12, 1.3418999999999998E-13, 3.7899999999999995E-14
DataValue, -13.564, -2, 0, -6.934999999999999E-14, 3.4999999999999997E-16, 1.28E-12, 6.934999999999999E-14, 3.4999999999999997E-16
DataValue, -13.418000000000001, -2, 0, -6.505999999999999E-14, -1.3999999999999999E-14, 2.36E-12, 6.505999999999999E-14, 1.3999999999999999E-14
DataValue, -13.272, -2, 0, -5.747E-14, -1.0309999999999999E-14, 1.22E-12, 5.747E-14, 1.0309999999999999E-14
DataValue, -13.128, -2, 0, -5.3239999999999996E-14, 6.1E-15, 1.18E-12, 5.3239999999999996E-14, 6.1E-15
DataValue, -12.982000000000001, -2, 0, -6.134E-14, -7.24E-15, 1.54E-12, 6.134E-14, 7.24E-15
DataValue, -12.836, -2, 0, -5.779E-14, -1.0579999999999999E-14, 1.7299999999999999E-12, 5.779E-14, 1.0579999999999999E-14
DataValue, -12.69, -2, 0, -4.322E-14, -1.6189999999999998E-14, 9.3E-13, 4.322E-14, 1.6189999999999998E-14
DataValue, -12.546, -2, 0, -4.2639999999999996E-14, -1.5879999999999998E-14, 8.4E-13, 4.2639999999999996E-14, 1.5879999999999998E-14
DataValue, -12.4, -2, 0, -4.3399999999999997E-14, -9.39E-15, 8.8E-13, 4.3399999999999997E-14, 9.39E-15
DataValue, -12.254, -2, 0, -4.7009999999999994E-14, -1.952E-14, 1.39E-12, 4.7009999999999994E-14, 1.952E-14
DataValue, -12.11, -2, 0, -3.7099999999999995E-14, -1.7329999999999997E-14, 1.24E-12, 3.7099999999999995E-14, 1.7329999999999997E-14
DataValue, -11.964, -2, 0, -4.6419999999999993E-14, -2.6619999999999998E-14, 1.18E-12, 4.6419999999999993E-14, 2.6619999999999998E-14
