
SetupTitle, Transfer Curve - Back Gate
PrimitiveTest, I/V Sweep
TestParameter, Context.MainFrame, B1500A
TestParameter, Channel.UnitType, SMU, SMU, SMU
TestParameter, Channel.Unit, SMU1:HR/AS, SMU4:HR/AS, SMU6:MP
TestParameter, Channel.IName, Id, Is, Ig
TestParameter, Channel.VName, Vd, Vs, Vg
TestParameter, Channel.Mode, V, V, V
TestParameter, Channel.Func, CONST, CONST, VAR1
TestParameter, Channel.Index, 
TestParameter, Channel.Time, 
TestParameter, Measurement.Port.Unit, SMU1:HR/AS, SMU4:HR/AS, SMU6:MP
TestParameter, Measurement.Port.SeriesResistor, NONE, NONE, NONE
TestParameter, Measurement.Port.Filter, ON, ON, ON
TestParameter, Measurement.Port.OutputVoltageComparison, 0, 0, 0
TestParameter, Measurement.Primary.Locus, Single
TestParameter, Measurement.Primary.Scale, LINEAR
TestParameter, Measurement.Primary.Start, -20
TestParameter, Measurement.Primary.Stop, 2
TestParameter, Measurement.Primary.Step, 0.1
TestParameter, Measurement.Primary.Compliance, 1E-05
TestParameter, Measurement.Primary.PowerCompliance, 0
TestParameter, Measurement.Aborting.Condition, CONTINUE AT ANY
TestParameter, Measurement.PostOutput.Value, START
TestParameter, Measurement.PostOutput.Retention, OFF
TestParameter, Measurement.Bias.Source, -2, 0, -20
TestParameter, Measurement.Bias.Compliance, 1E-05, 1E-05, 1E-05
TestParameter, Measurement.Monitor.Unit, SMU1:HR/AS, SMU4:HR/AS, SMU6:MP
TestParameter, Measurement.Monitor.Adc, HR ADC, HR ADC, HR ADC
TestParameter, Measurement.Monitor.Measurement, Compliance Side, Compliance Side, Compliance Side
TestParameter, Measurement.Monitor.RangingMode, LIMITED, LIMITED, FIXED
TestParameter, Measurement.Monitor.RangeBoundary, 10pA, 10pA, 10nA
TestParameter, Measurement.Monitor.RangeRating, BY FULL RANGE, BY FULL RANGE, 
TestParameter, Measurement.Monitor.RangeRatingCoeff, 50, 50, 50
TestParameter, Measurement.Timing.Hold, 0.1
TestParameter, Measurement.Timing.Delay, 0
TestParameter, Measurement.Adc.HighSpeed.Mode, AUTO
TestParameter, Measurement.Adc.HighSpeed.Coeff, 1
TestParameter, Measurement.Adc.HighResolution.AutoZero, OFF
TestParameter, Measurement.Adc.HighResolution.Mode, AUTO
TestParameter, Measurement.Adc.HighResolution.Coeff, 127
TestParameter, Measurement.WaitTime.Source.Coeff, 1
TestParameter, Measurement.WaitTime.Source.Offset, 0
TestParameter, Measurement.WaitTime.Monitor.Coeff, 1
TestParameter, Measurement.WaitTime.Monitor.Offset, 0
TestParameter, Function.User.Name, AbsId, AbsIs
TestParameter, Function.User.Unit, A, A
TestParameter, Function.User.Definition, abs(Id), abs(Is)
TestParameter, Output.Graph.Enabled, true
TestParameter, Output.Graph.AutoScaling, false
TestParameter, Output.Graph.XAxis.Data, Vg
TestParameter, Output.Graph.XAxis.Scale, Linear
TestParameter, Output.Graph.XAxis.Left, -10
TestParameter, Output.Graph.XAxis.Right, 10
TestParameter, Output.Graph.XAxis.RunTimeAutoScale, true
TestParameter, Output.Graph.YAxis.Data, AbsId, AbsIs
TestParameter, Output.Graph.YAxis.Scale, Log, Log
TestParameter, Output.Graph.YAxis.Bottom, 0, 0
TestParameter, Output.Graph.YAxis.Top, 1, 1
TestParameter, Output.Graph.YAxis.Group, Group 1, Group 1
TestParameter, Output.Graph.YAxis.RunTimeAutoScale, true, true
TestParameter, Output.List.Data, Vg, Id, Is, Vd, Vs, Ig, AbsId, AbsIs
TestParameter, AutoAnalysis.Interpolation, false
TestParameter, AutoAnalysis.Line1.Enabled, false
TestParameter, AutoAnalysis.Line1.Type, 1
TestParameter, AutoAnalysis.Line1.Fix, True
TestParameter, AutoAnalysis.Line1.YAxis, 0
TestParameter, AutoAnalysis.Line1.Point1.Type, 0
TestParameter, AutoAnalysis.Line1.Point1.XY.X, 
TestParameter, AutoAnalysis.Line1.Point1.XY.Y, 
TestParameter, AutoAnalysis.Line1.Point1.Data.Var, 
TestParameter, AutoAnalysis.Line1.Point1.Data.Condition, 
TestParameter, AutoAnalysis.Line1.Point1.Data.Start, false
TestParameter, AutoAnalysis.Line1.Point1.Data.StartVar, 
TestParameter, AutoAnalysis.Line1.Point1.Data.StartCondition, 
TestParameter, AutoAnalysis.Line1.Point2.Type, 0
TestParameter, AutoAnalysis.Line1.Point2.XY.X, 
TestParameter, AutoAnalysis.Line1.Point2.XY.Y, 
TestParameter, AutoAnalysis.Line1.Point2.Data.Var, 
TestParameter, AutoAnalysis.Line1.Point2.Data.Condition, 
TestParameter, AutoAnalysis.Line1.Point2.Data.Start, false
TestParameter, AutoAnalysis.Line1.Point2.Data.StartVar, 
TestParameter, AutoAnalysis.Line1.Point2.Data.StartCondition, 
TestParameter, AutoAnalysis.Line1.GradientExpr, 0
TestParameter, AutoAnalysis.Line2.Enabled, false
TestParameter, AutoAnalysis.Line2.Type, 1
TestParameter, AutoAnalysis.Line2.Fix, True
TestParameter, AutoAnalysis.Line2.YAxis, 0
TestParameter, AutoAnalysis.Line2.Point1.Type, 0
TestParameter, AutoAnalysis.Line2.Point1.XY.X, 
TestParameter, AutoAnalysis.Line2.Point1.XY.Y, 
TestParameter, AutoAnalysis.Line2.Point1.Data.Var, 
TestParameter, AutoAnalysis.Line2.Point1.Data.Condition, 
TestParameter, AutoAnalysis.Line2.Point1.Data.Start, false
TestParameter, AutoAnalysis.Line2.Point1.Data.StartVar, 
TestParameter, AutoAnalysis.Line2.Point1.Data.StartCondition, 
TestParameter, AutoAnalysis.Line2.Point2.Type, 0
TestParameter, AutoAnalysis.Line2.Point2.XY.X, 
TestParameter, AutoAnalysis.Line2.Point2.XY.Y, 
TestParameter, AutoAnalysis.Line2.Point2.Data.Var, 
TestParameter, AutoAnalysis.Line2.Point2.Data.Condition, 
TestParameter, AutoAnalysis.Line2.Point2.Data.Start, false
TestParameter, AutoAnalysis.Line2.Point2.Data.StartVar, 
TestParameter, AutoAnalysis.Line2.Point2.Data.StartCondition, 
TestParameter, AutoAnalysis.Line2.GradientExpr, 0
TestParameter, AutoAnalysis.Marker.Enabled, false
TestParameter, AutoAnalysis.Marker.Data.Var, 
TestParameter, AutoAnalysis.Marker.Data.Condition, 
TestParameter, AutoAnalysis.Marker.Data.Start, false
TestParameter, AutoAnalysis.Marker.Data.StartVar, 
TestParameter, AutoAnalysis.Marker.Data.StartCondition, 
MetaData, TestRecord.EntryPoint, true
MetaData, TestRecord.RecordTime, 10/22/2019 13:28:46
MetaData, TestRecord.TestTarget, 2um-5
MetaData, TestRecord.IterationIndex, 9
MetaData, TestRecord.Preservation, true
MetaData, TestRecord.Flag, 
MetaData, TestRecord.Remarks, 
MetaData, TestRecord.LinkKey, 673f9864-b832-4c1d-95e3-c754d49d4ae7
Dimension1, 221, 221, 221, 221, 221, 221, 221, 221
Dimension2, 1, 1, 1, 1, 1, 1, 1, 1
DataName, Vg, Vd, Vs, Id, Is, Ig, AbsId, AbsIs
DataValue, -20, -2, 0, -2.99117E-11, 2.76253E-11, -7.05E-12, 2.99117E-11, 2.76253E-11
DataValue, -19.900000000000002, -2, 0, -1.76965E-11, 9.35198E-12, -1.44E-12, 1.76965E-11, 9.35198E-12
DataValue, -19.8, -2, 0, -1.02698E-11, 8.45058E-12, -9.3E-13, 1.02698E-11, 8.45058E-12
DataValue, -19.7, -2, 0, -9.7550999999999991E-12, 7.72762E-12, -6.4E-13, 9.7550999999999991E-12, 7.72762E-12
DataValue, -19.6, -2, 0, -1.6222999999999999E-12, 6.0609E-13, -4.1E-13, 1.6222999999999999E-12, 6.0609E-13
DataValue, -19.5, -2, 0, -6.1403E-13, 4.961E-13, -1.4E-13, 6.1403E-13, 4.961E-13
DataValue, -19.400000000000002, -2, 0, -6.7344999999999992E-13, 5.7535E-13, -8E-14, 6.7344999999999992E-13, 5.7535E-13
DataValue, -19.3, -2, 0, -6.7872E-13, 7.301E-13, 4E-14, 6.7872E-13, 7.301E-13
DataValue, -19.2, -2, 0, -6.4621999999999995E-13, 2.6864999999999997E-13, 4E-14, 6.4621999999999995E-13, 2.6864999999999997E-13
DataValue, -19.1, -2, 0, -5.089E-13, 5.7211E-13, 1.6E-13, 5.089E-13, 5.7211E-13
DataValue, -19, -2, 0, -1.7065999999999998E-13, 9.326999999999999E-14, 2.5E-13, 1.7065999999999998E-13, 9.326999999999999E-14
DataValue, -18.900000000000002, -2, 0, -5.8699999999999992E-14, 4.28E-14, 2.8E-13, 5.8699999999999992E-14, 4.28E-14
DataValue, -18.8, -2, 0, -7.997E-14, 1.0926999999999999E-13, 5.1E-13, 7.997E-14, 1.0926999999999999E-13
DataValue, -18.7, -2, 0, -5.5069999999999993E-14, 3.551E-14, 4.7E-13, 5.5069999999999993E-14, 3.551E-14
DataValue, -18.6, -2, 0, -1.9019999999999999E-13, 4.625E-14, 4.7E-13, 1.9019999999999999E-13, 4.625E-14
DataValue, -18.5, -2, 0, -1.2084999999999999E-13, 3.613E-14, 7.8E-13, 1.2084999999999999E-13, 3.613E-14
DataValue, -18.400000000000002, -2, 0, -1.7454999999999997E-13, 3.9679999999999995E-14, 6.6E-13, 1.7454999999999997E-13, 3.9679999999999995E-14
DataValue, -18.3, -2, 0, -4.1319999999999995E-14, 2.0639999999999998E-14, 7.2E-13, 4.1319999999999995E-14, 2.0639999999999998E-14
DataValue, -18.2, -2, 0, -3.4857999999999996E-13, 8.263E-14, 7.2E-13, 3.4857999999999996E-13, 8.263E-14
DataValue, -18.1, -2, 0, -2.8414E-13, 6.1109999999999992E-14, 5.3E-13, 2.8414E-13, 6.1109999999999992E-14
DataValue, -18, -2, 0, -1.9452E-13, 4.0019999999999996E-14, 7.4E-13, 1.9452E-13, 4.0019999999999996E-14
DataValue, -17.900000000000002, -2, 0, -5.455E-14, 1.1054999999999999E-13, 7.8E-13, 5.455E-14, 1.1054999999999999E-13
DataValue, -17.8, -2, 0, -5.728E-14, 6.21E-14, 6.8E-13, 5.728E-14, 6.21E-14
DataValue, -17.7, -2, 0, -4.3929999999999996E-14, 2.426E-14, 7.1E-13, 4.3929999999999996E-14, 2.426E-14
DataValue, -17.6, -2, 0, -4.273E-14, 4.6099999999999996E-15, 8.3E-13, 4.273E-14, 4.6099999999999996E-15
DataValue, -17.5, -2, 0, -9.3009999999999987E-14, 3.614E-14, 7E-13, 9.3009999999999987E-14, 3.614E-14
DataValue, -17.400000000000002, -2, 0, -5.6199999999999997E-14, 3.356E-14, 7.8E-13, 5.6199999999999997E-14, 3.356E-14
DataValue, -17.3, -2, 0, -4.1219999999999994E-14, -4.4399999999999996E-15, 9.7E-13, 4.1219999999999994E-14, 4.4399999999999996E-15
DataValue, -17.2, -2, 0, -4.1499999999999994E-14, -2.18E-15, 6.7E-13, 4.1499999999999994E-14, 2.18E-15
DataValue, -17.1, -2, 0, -3.6359999999999996E-14, -1.8299999999999998E-15, 8.6E-13, 3.6359999999999996E-14, 1.8299999999999998E-15
DataValue, -17, -2, 0, -4.681E-14, 7.0699999999999993E-15, 8.4E-13, 4.681E-14, 7.0699999999999993E-15
DataValue, -16.9, -2, 0, -3.613E-14, 9.9999999999999992E-18, 9.1E-13, 3.613E-14, 9.9999999999999992E-18
DataValue, -16.8, -2, 0, -4.8159999999999994E-14, -3.57E-15, 7.6E-13, 4.8159999999999994E-14, 3.57E-15
DataValue, -16.7, -2, 0, -3.6159999999999994E-14, -9.21E-15, 8.1E-13, 3.6159999999999994E-14, 9.21E-15
DataValue, -16.6, -2, 0, -3.223E-14, -1.5829999999999997E-14, 1.07E-12, 3.223E-14, 1.5829999999999997E-14
DataValue, -16.5, -2, 0, -3.0609999999999995E-14, -1.6329999999999998E-14, 1.35E-12, 3.0609999999999995E-14, 1.6329999999999998E-14
DataValue, -16.4, -2, 0, -2.969E-14, -9.26E-15, 1.06E-12, 2.969E-14, 9.26E-15
DataValue, -16.3, -2, 0, -3.868E-14, -3.15E-15, 1.11E-12, 3.868E-14, 3.15E-15
DataValue, -16.2, -2, 0, -4.9509999999999996E-14, -2.8899999999999996E-15, 7E-13, 4.9509999999999996E-14, 2.8899999999999996E-15
DataValue, -16.1, -2, 0, -3.7589999999999994E-14, -2.4099999999999997E-15, 8.2E-13, 3.7589999999999994E-14, 2.4099999999999997E-15
DataValue, -16, -2, 0, -3.899E-14, -6.8299999999999994E-15, 8.1E-13, 3.899E-14, 6.8299999999999994E-15