
SetupTitle, Transfer Curve - Back Gate
PrimitiveTest, I/V Sweep
TestParameter, Context.MainFrame, B1500A
TestParameter, Channel.UnitType, SMU, SMU, SMU
TestParameter, Channel.Unit, SMU1:HR/AS, SMU4:HR/AS, SMU6:MP
TestParameter, Channel.IName, Id, Is, Ig
TestParameter, Channel.VName, Vd, Vs, Vg
TestParameter, Channel.Mode, V, V, V
TestParameter, Channel.Func, CONST, CONST, VAR1
TestParameter, Channel.Index, 
TestParameter, Channel.Time, 
TestParameter, Measurement.Port.Unit, SMU1:HR/AS, SMU4:HR/AS, SMU6:MP
TestParameter, Measurement.Port.SeriesResistor, NONE, NONE, NONE
TestParameter, Measurement.Port.Filter, ON, ON, ON
TestParameter, Measurement.Port.OutputVoltageComparison, 0, 0, 0
TestParameter, Measurement.Primary.Locus, Single
TestParameter, Measurement.Primary.Scale, LINEAR
TestParameter, Measurement.Primary.Start, -30
TestParameter, Measurement.Primary.Stop, 30
TestParameter, Measurement.Primary.Step, 0.272
TestParameter, Measurement.Primary.Compliance, 1E-05
TestParameter, Measurement.Primary.PowerCompliance, 0
TestParameter, Measurement.Aborting.Condition, CONTINUE AT ANY
TestParameter, Measurement.PostOutput.Value, START
TestParameter, Measurement.PostOutput.Retention, OFF
TestParameter, Measurement.Bias.Source, -2, 0, -30
TestParameter, Measurement.Bias.Compliance, 1E-05, 1E-05, 1E-05
TestParameter, Measurement.Monitor.Unit, SMU1:HR/AS, SMU4:HR/AS, SMU6:MP
TestParameter, Measurement.Monitor.Adc, HR ADC, HR ADC, HR ADC
TestParameter, Measurement.Monitor.Measurement, Compliance Side, Compliance Side, Compliance Side
TestParameter, Measurement.Monitor.RangingMode, AUTO, AUTO, FIXED
TestParameter, Measurement.Monitor.RangeBoundary, , , 10nA
TestParameter, Measurement.Monitor.RangeRating, BY FULL RANGE, BY FULL RANGE, 
TestParameter, Measurement.Monitor.RangeRatingCoeff, 50, 50, 50
TestParameter, Measurement.Timing.Hold, 0.1
TestParameter, Measurement.Timing.Delay, 0
TestParameter, Measurement.Adc.HighSpeed.Mode, AUTO
TestParameter, Measurement.Adc.HighSpeed.Coeff, 1
TestParameter, Measurement.Adc.HighResolution.AutoZero, OFF
TestParameter, Measurement.Adc.HighResolution.Mode, AUTO
TestParameter, Measurement.Adc.HighResolution.Coeff, 127
TestParameter, Measurement.WaitTime.Source.Coeff, 1
TestParameter, Measurement.WaitTime.Source.Offset, 0
TestParameter, Measurement.WaitTime.Monitor.Coeff, 1
TestParameter, Measurement.WaitTime.Monitor.Offset, 0
TestParameter, Function.User.Name, AbsId, AbsIs
TestParameter, Function.User.Unit, A, A
TestParameter, Function.User.Definition, abs(Id), abs(Is)
TestParameter, Output.Graph.Enabled, true
TestParameter, Output.Graph.AutoScaling, false
TestParameter, Output.Graph.XAxis.Data, Vg
TestParameter, Output.Graph.XAxis.Scale, Linear
TestParameter, Output.Graph.XAxis.Left, -10
TestParameter, Output.Graph.XAxis.Right, 10
TestParameter, Output.Graph.XAxis.RunTimeAutoScale, true
TestParameter, Output.Graph.YAxis.Data, AbsId, AbsIs
TestParameter, Output.Graph.YAxis.Scale, Log, Log
TestParameter, Output.Graph.YAxis.Bottom, 0, 0
TestParameter, Output.Graph.YAxis.Top, 1, 1
TestParameter, Output.Graph.YAxis.Group, Group 1, Group 1
TestParameter, Output.Graph.YAxis.RunTimeAutoScale, true, true
TestParameter, Output.List.Data, Vg, Id, Is, Vd, Vs, Ig, AbsId, AbsIs
TestParameter, AutoAnalysis.Interpolation, false
TestParameter, AutoAnalysis.Line1.Enabled, false
TestParameter, AutoAnalysis.Line1.Type, 1
TestParameter, AutoAnalysis.Line1.Fix, True
TestParameter, AutoAnalysis.Line1.YAxis, 0
TestParameter, AutoAnalysis.Line1.Point1.Type, 0
TestParameter, AutoAnalysis.Line1.Point1.XY.X, 
TestParameter, AutoAnalysis.Line1.Point1.XY.Y, 
TestParameter, AutoAnalysis.Line1.Point1.Data.Var, 
TestParameter, AutoAnalysis.Line1.Point1.Data.Condition, 
TestParameter, AutoAnalysis.Line1.Point1.Data.Start, false
TestParameter, AutoAnalysis.Line1.Point1.Data.StartVar, 
TestParameter, AutoAnalysis.Line1.Point1.Data.StartCondition, 
TestParameter, AutoAnalysis.Line1.Point2.Type, 0
TestParameter, AutoAnalysis.Line1.Point2.XY.X, 
TestParameter, AutoAnalysis.Line1.Point2.XY.Y, 
TestParameter, AutoAnalysis.Line1.Point2.Data.Var, 
TestParameter, AutoAnalysis.Line1.Point2.Data.Condition, 
TestParameter, AutoAnalysis.Line1.Point2.Data.Start, false
TestParameter, AutoAnalysis.Line1.Point2.Data.StartVar, 
TestParameter, AutoAnalysis.Line1.Point2.Data.StartCondition, 
TestParameter, AutoAnalysis.Line1.GradientExpr, 0
TestParameter, AutoAnalysis.Line2.Enabled, false
TestParameter, AutoAnalysis.Line2.Type, 1
TestParameter, AutoAnalysis.Line2.Fix, True
TestParameter, AutoAnalysis.Line2.YAxis, 0
TestParameter, AutoAnalysis.Line2.Point1.Type, 0
TestParameter, AutoAnalysis.Line2.Point1.XY.X, 
TestParameter, AutoAnalysis.Line2.Point1.XY.Y, 
TestParameter, AutoAnalysis.Line2.Point1.Data.Var, 
TestParameter, AutoAnalysis.Line2.Point1.Data.Condition, 
TestParameter, AutoAnalysis.Line2.Point1.Data.Start, false
TestParameter, AutoAnalysis.Line2.Point1.Data.StartVar, 
TestParameter, AutoAnalysis.Line2.Point1.Data.StartCondition, 
TestParameter, AutoAnalysis.Line2.Point2.Type, 0
TestParameter, AutoAnalysis.Line2.Point2.XY.X, 
TestParameter, AutoAnalysis.Line2.Point2.XY.Y, 
TestParameter, AutoAnalysis.Line2.Point2.Data.Var, 
TestParameter, AutoAnalysis.Line2.Point2.Data.Condition, 
TestParameter, AutoAnalysis.Line2.Point2.Data.Start, false
TestParameter, AutoAnalysis.Line2.Point2.Data.StartVar, 
TestParameter, AutoAnalysis.Line2.Point2.Data.StartCondition, 
TestParameter, AutoAnalysis.Line2.GradientExpr, 0
TestParameter, AutoAnalysis.Marker.Enabled, false
TestParameter, AutoAnalysis.Marker.Data.Var, 
TestParameter, AutoAnalysis.Marker.Data.Condition, 
TestParameter, AutoAnalysis.Marker.Data.Start, false
TestParameter, AutoAnalysis.Marker.Data.StartVar, 
TestParameter, AutoAnalysis.Marker.Data.StartCondition, 
MetaData, TestRecord.EntryPoint, true
MetaData, TestRecord.RecordTime, 10/22/2019 14:20:13
MetaData, TestRecord.TestTarget, .3um-4
MetaData, TestRecord.IterationIndex, 15
MetaData, TestRecord.Preservation, true
MetaData, TestRecord.Flag, 
MetaData, TestRecord.Remarks, 
MetaData, TestRecord.LinkKey, aceceaff-b4a4-408b-a0da-7a87b15b878a
Dimension1, 221, 221, 221, 221, 221, 221, 221, 221
Dimension2, 1, 1, 1, 1, 1, 1, 1, 1
DataName, Vg, Vd, Vs, Id, Is, Ig, AbsId, AbsIs
DataValue, -30, -2, 0, -5.78693E-09, 5.66355E-09, -5.854E-11, 5.78693E-09, 5.66355E-09
DataValue, -29.728, -2, 0, -4.95029E-09, 4.91409E-09, -2.476E-11, 4.95029E-09, 4.91409E-09
DataValue, -29.454, -2, 0, -3.93571E-09, 3.89742E-09, -1.572E-11, 3.93571E-09, 3.89742E-09
DataValue, -29.182000000000002, -2, 0, -3.28089E-09, 3.14466E-09, -7.03E-12, 3.28089E-09, 3.14466E-09
DataValue, -28.91, -2, 0, -2.48999E-09, 2.39888E-09, -6.69E-12, 2.48999E-09, 2.39888E-09
DataValue, -28.636, -2, 0, -2.38321E-09, 2.51009E-09, -5.83E-12, 2.38321E-09, 2.51009E-09
DataValue, -28.364, -2, 0, -1.92925E-09, 1.94968E-09, -5.54E-12, 1.92925E-09, 1.94968E-09
DataValue, -28.09, -2, 0, -1.44807E-09, 1.47717E-09, -2.28E-12, 1.44807E-09, 1.47717E-09
DataValue, -27.818, -2, 0, -1.17783E-09, 1.11483E-09, -1.71E-12, 1.17783E-09, 1.11483E-09
DataValue, -27.546, -2, 0, -1.0134799999999999E-09, 1.16369E-09, -1.06E-12, 1.0134799999999999E-09, 1.16369E-09
DataValue, -27.272000000000002, -2, 0, -9.4765200000000015E-10, 8.2471600000000009E-10, -9.1E-13, 9.4765200000000015E-10, 8.2471600000000009E-10
DataValue, -27, -2, 0, -7.36382E-10, 7.13338E-10, -4.1E-13, 7.36382E-10, 7.13338E-10
DataValue, -26.728, -2, 0, -7.06325E-10, 6.80949E-10, -1.3E-13, 7.06325E-10, 6.80949E-10
DataValue, -26.454, -2, 0, -6.23287E-10, 6.49962E-10, 3.1E-13, 6.23287E-10, 6.49962E-10
DataValue, -26.182000000000002, -2, 0, -5.13945E-10, 5.51235E-10, 6.8E-13, 5.13945E-10, 5.51235E-10
DataValue, -25.91, -2, 0, -4.5222900000000004E-10, 4.5701000000000006E-10, 6.9E-13, 4.5222900000000004E-10, 4.5701000000000006E-10
DataValue, -25.636, -2, 0, -3.51901E-10, 3.6315000000000003E-10, 1.23E-12, 3.51901E-10, 3.6315000000000003E-10
DataValue, -25.364, -2, 0, -3.11272E-10, 3.30105E-10, 1.64E-12, 3.11272E-10, 3.30105E-10
DataValue, -25.09, -2, 0, -2.74448E-10, 2.78456E-10, 1.76E-12, 2.74448E-10, 2.78456E-10
DataValue, -24.818, -2, 0, -2.64402E-10, 2.75123E-10, 2.76E-12, 2.64402E-10, 2.75123E-10
DataValue, -24.546, -2, 0, -2.45089E-10, 2.3029400000000002E-10, 3.74E-12, 2.45089E-10, 2.3029400000000002E-10
DataValue, -24.272000000000002, -2, 0, -1.9899500000000002E-10, 1.9636100000000002E-10, 4.75E-12, 1.9899500000000002E-10, 1.9636100000000002E-10
DataValue, -24, -2, 0, -1.6243500000000002E-10, 1.53032E-10, 5.42E-12, 1.6243500000000002E-10, 1.53032E-10
DataValue, -23.728, -2, 0, -1.2911E-10, 1.3278800000000002E-10, 6.74E-12, 1.2911E-10, 1.3278800000000002E-10
DataValue, -23.454, -2, 0, -1.16085E-10, 1.1391000000000001E-10, 6.88E-12, 1.16085E-10, 1.1391000000000001E-10
DataValue, -23.182000000000002, -2, 0, -1.0212200000000001E-10, 1.0283500000000001E-10, 7.86E-12, 1.0212200000000001E-10, 1.0283500000000001E-10
DataValue, -22.91, -2, 0, -9.0563000000000008E-11, 9.4768000000000008E-11, 8.07E-12, 9.0563000000000008E-11, 9.4768000000000008E-11
DataValue, -22.636, -2, 0, -7.0736999999999993E-11, 8.19444E-11, 5.16E-12, 7.0736999999999993E-11, 8.19444E-11
DataValue, -22.364, -2, 0, -6.78064E-11, 6.82717E-11, 4.69E-12, 6.78064E-11, 6.82717E-11
DataValue, -22.09, -2, 0, -5.82954E-11, 5.7691499999999997E-11, 3.89E-12, 5.82954E-11, 5.7691499999999997E-11
DataValue, -21.818, -2, 0, -4.96388E-11, 5.0683E-11, 2.85E-12, 4.96388E-11, 5.0683E-11
DataValue, -21.546, -2, 0, -3.72815E-11, 4.02356E-11, 3.95E-12, 3.72815E-11, 4.02356E-11
DataValue, -21.272000000000002, -2, 0, -3.39063E-11, 3.37206E-11, 2.08E-12, 3.39063E-11, 3.37206E-11
DataValue, -21, -2, 0, -2.71565E-11, 2.63648E-11, 2.99E-12, 2.71565E-11, 2.63648E-11
DataValue, -20.728, -2, 0, -2.35289E-11, 2.21367E-11, 2.27E-12, 2.35289E-11, 2.21367E-11
DataValue, -20.454, -2, 0, -1.6171299999999998E-11, 1.62976E-11, 2.08E-12, 1.6171299999999998E-11, 1.62976E-11
DataValue, -20.182000000000002, -2, 0, -1.54545E-11, 1.67581E-11, 2.23E-12, 1.54545E-11, 1.67581E-11
DataValue, -19.91, -2, 0, -1.37154E-11, 1.05455E-11, 2.41E-12, 1.37154E-11, 1.05455E-11
DataValue, -19.636, -2, 0, -1.0665169999999999E-11, 1.12341E-11, 1.03E-12, 1.0665169999999999E-11, 1.12341E-11
DataValue, -19.364, -2, 0, -7.7183299999999991E-12, 7.45386E-12, 4.7E-13, 7.7183299999999991E-12, 7.45386E-12
DataValue, -19.09, -2, 0, -4.73358E-12, 5.1091999999999993E-12, 3.7E-13, 4.73358E-12, 5.1091999999999993E-12
DataValue, -18.818, -2, 0, -4.3541399999999995E-12, 3.0062599999999998E-12, 2.3E-13, 4.3541399999999995E-12, 3.0062599999999998E-12
DataValue, -18.546, -2, 0, -2.3893799999999997E-12, 2.38455E-12, 5.8E-13, 2.3893799999999997E-12, 2.38455E-12
DataValue, -18.272000000000002, -2, 0, -2.0106199999999998E-12, 2.2432799999999997E-12, 8.8E-13, 2.0106199999999998E-12, 2.2432799999999997E-12
DataValue, -18, -2, 0, -1.53157E-12, 1.5906799999999998E-12, 1.45E-12, 1.53157E-12, 1.5906799999999998E-12
DataValue, -17.728, -2, 0, -1.36081E-12, 1.2547099999999998E-12, 1.22E-12, 1.36081E-12, 1.2547099999999998E-12
DataValue, -17.454, -2, 0, -9.2999999999999987E-13, 7.7049E-13, 1.24E-12, 9.2999999999999987E-13, 7.7049E-13
DataValue, -17.182, -2, 0, -7.946799999999999E-13, 6.9708999999999991E-13, 1.35E-12, 7.946799999999999E-13, 6.9708999999999991E-13
DataValue, -16.91, -2, 0, -5.6663E-13, 4.6882999999999993E-13, 2.36E-12, 5.6663E-13, 4.6882999999999993E-13
DataValue, -16.636, -2, 0, -3.6038E-13, 2.4145999999999996E-13, 3.03E-12, 3.6038E-13, 2.4145999999999996E-13
DataValue, -16.364, -2, 0, -2.4835E-13, 1.7042999999999999E-13, 2.56E-12, 2.4835E-13, 1.7042999999999999E-13
DataValue, -16.09, -2, 0, -2.523E-13, 1.7373999999999998E-13, 1.86E-12, 2.523E-13, 1.7373999999999998E-13
DataValue, -15.818, -2, 0, -2.0151E-13, 1.1249E-13, 1.7E-12, 2.0151E-13, 1.1249E-13
DataValue, -15.546000000000001, -2, 0, -1.42E-13, 4.9019999999999996E-14, 1.86E-12, 1.42E-13, 4.9019999999999996E-14
DataValue, -15.272, -2, 0, -1.2479E-13, 3.2009999999999994E-14, 2.39E-12, 1.2479E-13, 3.2009999999999994E-14
DataValue, -15, -2, 0, -1.1527E-13, 1.748E-14, 2.77E-12, 1.1527E-13, 1.748E-14
DataValue, -14.728, -2, 0, -9.7959999999999994E-14, 1.01E-14, 1.75E-12, 9.7959999999999994E-14, 1.01E-14
DataValue, -14.454, -2, 0, -9.926E-14, -4.16E-15, 2.42E-12, 9.926E-14, 4.16E-15
DataValue, -14.182, -2, 0, -8.4299999999999992E-14, -1.556E-14, 2.23E-12, 8.4299999999999992E-14, 1.556E-14
DataValue, -13.91, -2, 0, -6.421E-14, -2.827E-14, 1.86E-12, 6.421E-14, 2.827E-14
DataValue, -13.636000000000001, -2, 0, -6.0579999999999993E-14, -2.9559999999999996E-14, 1.91E-12, 6.0579999999999993E-14, 2.9559999999999996E-14
DataValue, -13.364, -2, 0, -5.6059999999999997E-14, -3.1579999999999996E-14, 2.22E-12, 5.6059999999999997E-14, 3.1579999999999996E-14
DataValue, -13.09, -2, 0, -5.5679999999999996E-14, -3.8079999999999994E-14, 1.76E-12, 5.5679999999999996E-14, 3.8079999999999994E-14
DataValue, -12.818, -2, 0, -6.092E-14, -5.3409999999999997E-14, 1.62E-12, 6.092E-14, 5.3409999999999997E-14
DataValue, -12.546, -2, 0, -5.2269999999999995E-14, -3.352E-14, 1.62E-12, 5.2269999999999995E-14, 3.352E-14
DataValue, -12.272, -2, 0, -5.82E-14, -5.0589999999999996E-14, 2.29E-12, 5.82E-14, 5.0589999999999996E-14
DataValue, -12, -2, 0, -7.5919999999999994E-14, -5.739E-14, 2.51E-12, 7.5919999999999994E-14, 5.739E-14
DataValue, -11.728, -2, 0, -5.619E-14, -4.6859999999999995E-14, 1.72E-12, 5.619E-14, 4.6859999999999995E-14
DataValue, -11.454, -2, 0, -5.3659999999999996E-14, -4.4239999999999996E-14, 1.95E-12, 5.3659999999999996E-14, 4.4239999999999996E-14
DataValue, -11.182, -2, 0, -4.7489999999999995E-14, -4.7619999999999997E-14, 2.2E-12, 4.7489999999999995E-14, 4.7619999999999997E-14
DataValue, -10.91, -2, 0, -5.218E-14, -4.6859999999999995E-14, 2.49E-12, 5.218E-14, 4.6859999999999995E-14
DataValue, -10.636000000000001, -2, 0, -5.5699999999999992E-14, -5.2539999999999996E-14, 1.92E-12, 5.5699999999999992E-14, 5.2539999999999996E-14
DataValue, -10.364, -2, 0, -4.4239999999999996E-14, -4.3549999999999995E-14, 2.02E-12, 4.4239999999999996E-14, 4.3549999999999995E-14
DataValue, -10.09, -2, 0, -5.41E-14, -5.0379999999999996E-14, 1.89E-12, 5.41E-14, 5.0379999999999996E-14
DataValue, -9.818, -2, 0, -5.703999999999999E-14, -5.0849999999999993E-14, 2.17E-12, 5.703999999999999E-14, 5.0849999999999993E-14
DataValue, -9.546, -2, 0, -4.7419999999999995E-14, -4.8089999999999994E-14, 1.68E-12, 4.7419999999999995E-14, 4.8089999999999994E-14
DataValue, -9.272, -2, 0, -4.9469999999999996E-14, -4.779E-14, 2.02E-12, 4.9469999999999996E-14, 4.779E-14
DataValue, -9, -2, 0, -5.009E-14, -4.856E-14, 2.1E-12, 5.009E-14, 4.856E-14
DataValue, -8.728, -2, 0, -6.7899999999999993E-14, -5.756E-14, 2.79E-12, 6.7899999999999993E-14, 5.756E-14
DataValue, -8.454, -2, 0, -7.259E-14, -6.3889999999999993E-14, 2.6E-12, 7.259E-14, 6.3889999999999993E-14
DataValue, -8.182, -2, 0, -5.5489999999999993E-14, -5.2539999999999996E-14, 2.24E-12, 5.5489999999999993E-14, 5.2539999999999996E-14
DataValue, -7.91, -2, 0, -6.4019999999999989E-14, -5.243E-14, 2.36E-12, 6.4019999999999989E-14, 5.243E-14
DataValue, -7.636, -2, 0, -5.913E-14, -6.05E-14, 2.36E-12, 5.913E-14, 6.05E-14
DataValue, -7.364, -2, 0, -5.4949999999999996E-14, -5.1359999999999995E-14, 2.1E-12, 5.4949999999999996E-14, 5.1359999999999995E-14
DataValue, -7.09, -2, 0, -5.4699999999999997E-14, -4.7559999999999995E-14, 2.12E-12, 5.4699999999999997E-14, 4.7559999999999995E-14
DataValue, -6.8180000000000005, -2, 0, -5.497E-14, -5.4259999999999994E-14, 3.14E-12, 5.497E-14, 5.4259999999999994E-14
DataValue, -6.546, -2, 0, -5.6829999999999996E-14, -5.2309999999999994E-14, 1.85E-12, 5.6829999999999996E-14, 5.2309999999999994E-14
DataValue, -6.272, -2, 0, -6.869E-14, -6.4729999999999993E-14, 2.73E-12, 6.869E-14, 6.4729999999999993E-14
DataValue, -6, -2, 0, -5.5369999999999995E-14, -5.2469999999999996E-14, 2.18E-12, 5.5369999999999995E-14, 5.2469999999999996E-14
DataValue, -5.728, -2, 0, -7.562E-14, -6.811E-14, 3.54E-12, 7.562E-14, 6.811E-14
DataValue, -5.454, -2, 0, -9.6209999999999988E-14, -7.34E-14, 3.42E-12, 9.6209999999999988E-14, 7.34E-14
DataValue, -5.182, -2, 0, -9.7609999999999987E-14, -6.039E-14, 2.3E-12, 9.7609999999999987E-14, 6.039E-14
DataValue, -4.91, -2, 0, -7.571E-14, -4.8079999999999996E-14, 1.84E-12, 7.571E-14, 4.8079999999999996E-14
DataValue, -4.636, -2, 0, -6.7389999999999991E-14, -5.539E-14, 3.26E-12, 6.7389999999999991E-14, 5.539E-14
DataValue, -4.364, -2, 0, -8.302E-14, -5.4369999999999993E-14, 1.65E-12, 8.302E-14, 5.4369999999999993E-14
DataValue, -4.09, -2, 0, -9.129E-14, -6.261E-14, 2.34E-12, 9.129E-14, 6.261E-14
DataValue, -3.818, -2, 0, -5.88E-14, -5.1919999999999995E-14, 2.9E-12, 5.88E-14, 5.1919999999999995E-14
DataValue, -3.5460000000000003, -2, 0, -8.1879999999999988E-14, -4.789E-14, 2.04E-12, 8.1879999999999988E-14, 4.789E-14
DataValue, -3.2720000000000002, -2, 0, -8.226E-14, -5.225E-14, 3.04E-12, 8.226E-14, 5.225E-14
DataValue, -3, -2, 0, -7.3139999999999992E-14, -4.6859999999999995E-14, 2.82E-12, 7.3139999999999992E-14, 4.6859999999999995E-14
DataValue, -2.728, -2, 0, -9.2649999999999989E-14, -4.7589999999999996E-14, 2.79E-12, 9.2649999999999989E-14, 4.7589999999999996E-14
DataValue, -2.454, -2, 0, -9.883E-14, -3.1199999999999996E-14, 2.72E-12, 9.883E-14, 3.1199999999999996E-14
DataValue, -2.182, -2, 0, -9.7919999999999988E-14, -1.5669999999999998E-14, 1.4E-12, 9.7919999999999988E-14, 1.5669999999999998E-14
DataValue, -1.9100000000000001, -2, 0, -9.9719999999999991E-14, -2.0069999999999997E-14, 1.97E-12, 9.9719999999999991E-14, 2.0069999999999997E-14
DataValue, -1.6360000000000001, -2, 0, -1.0209999999999999E-13, 6.6299999999999993E-15, 1.92E-12, 1.0209999999999999E-13, 6.6299999999999993E-15
DataValue, -1.364, -2, 0, -1.2492999999999998E-13, 1.1609999999999999E-14, 2.4E-12, 1.2492999999999998E-13, 1.1609999999999999E-14
DataValue, -1.09, -2, 0, -1.4611E-13, 3.4719999999999996E-14, 1.38E-12, 1.4611E-13, 3.4719999999999996E-14
DataValue, -0.81800000000000006, -2, 0, -1.1093999999999999E-13, 1.9999999999999998E-17, 1.38E-12, 1.1093999999999999E-13, 1.9999999999999998E-17
DataValue, -0.546, -2, 0, -9.6949999999999993E-14, -1.3739999999999998E-14, 2.31E-12, 9.6949999999999993E-14, 1.3739999999999998E-14
DataValue, -0.272, -2, 0, -1.0394999999999999E-13, -5.2E-16, 2.43E-12, 1.0394999999999999E-13, 5.2E-16
DataValue, 0, -2, 0, -1.3632E-13, 1.7149999999999998E-14, 2.57E-12, 1.3632E-13, 1.7149999999999998E-14
DataValue, 0.272, -2, 0, -1.8858E-13, 5.2899999999999994E-14, 1.7E-12, 1.8858E-13, 5.2899999999999994E-14
DataValue, 0.546, -2, 0, -2.4566E-13, 1.3878999999999998E-13, 1.96E-12, 2.4566E-13, 1.3878999999999998E-13
DataValue, 0.81800000000000006, -2, 0, -2.3591E-13, 1.3617E-13, 1.77E-12, 2.3591E-13, 1.3617E-13
DataValue, 1.09, -2, 0, -2.5133999999999997E-13, 1.4769E-13, 1.49E-12, 2.5133999999999997E-13, 1.4769E-13
DataValue, 1.364, -2, 0, -3.2624E-13, 2.3387E-13, 1.35E-12, 3.2624E-13, 2.3387E-13
DataValue, 1.6360000000000001, -2, 0, -3.4827999999999996E-13, 2.7128E-13, 1.94E-12, 3.4827999999999996E-13, 2.7128E-13
DataValue, 1.9100000000000001, -2, 0, -3.6077999999999995E-13, 2.6332E-13, 1.72E-12, 3.6077999999999995E-13, 2.6332E-13
DataValue, 2.182, -2, 0, -6.4460999999999992E-13, 4.9439E-13, 2.42E-12, 6.4460999999999992E-13, 4.9439E-13
DataValue, 2.454, -2, 0, -7.0286999999999991E-13, 5.4059999999999994E-13, 2.14E-12, 7.0286999999999991E-13, 5.4059999999999994E-13
DataValue, 2.728, -2, 0, -7.3188999999999992E-13, 5.5177E-13, 1.44E-12, 7.3188999999999992E-13, 5.5177E-13
DataValue, 3, -2, 0, -7.2355E-13, 5.2896999999999992E-13, 1.78E-12, 7.2355E-13, 5.2896999999999992E-13
