
SetupTitle, Transfer Curve - Back Gate
PrimitiveTest, I/V Sweep
TestParameter, Context.MainFrame, B1500A
TestParameter, Channel.UnitType, SMU, SMU, SMU
TestParameter, Channel.Unit, SMU1:HR/AS, SMU4:HR/AS, SMU6:MP
TestParameter, Channel.IName, Id, Is, Ig
TestParameter, Channel.VName, Vd, Vs, Vg
TestParameter, Channel.Mode, V, V, V
TestParameter, Channel.Func, CONST, CONST, VAR1
TestParameter, Channel.Index, 
TestParameter, Channel.Time, 
TestParameter, Measurement.Port.Unit, SMU1:HR/AS, SMU4:HR/AS, SMU6:MP
TestParameter, Measurement.Port.SeriesResistor, NONE, NONE, NONE
TestParameter, Measurement.Port.Filter, ON, ON, ON
TestParameter, Measurement.Port.OutputVoltageComparison, 0, 0, 0
TestParameter, Measurement.Primary.Locus, Double
TestParameter, Measurement.Primary.Scale, LINEAR
TestParameter, Measurement.Primary.Start, -10
TestParameter, Measurement.Primary.Stop, 10
TestParameter, Measurement.Primary.Step, 0.1
TestParameter, Measurement.Primary.Compliance, 1E-05
TestParameter, Measurement.Primary.PowerCompliance, 0
TestParameter, Measurement.Aborting.Condition, CONTINUE AT ANY
TestParameter, Measurement.PostOutput.Value, START
TestParameter, Measurement.PostOutput.Retention, OFF
TestParameter, Measurement.Bias.Source, 2, 0, -10
TestParameter, Measurement.Bias.Compliance, 1E-05, 1E-05, 1E-05
TestParameter, Measurement.Monitor.Unit, SMU1:HR/AS, SMU4:HR/AS, SMU6:MP
TestParameter, Measurement.Monitor.Adc, HR ADC, HR ADC, HR ADC
TestParameter, Measurement.Monitor.Measurement, Compliance Side, Compliance Side, Compliance Side
TestParameter, Measurement.Monitor.RangingMode, LIMITED, LIMITED, FIXED
TestParameter, Measurement.Monitor.RangeBoundary, 10pA, 10pA, 10nA
TestParameter, Measurement.Monitor.RangeRating, BY FULL RANGE, BY FULL RANGE, 
TestParameter, Measurement.Monitor.RangeRatingCoeff, 50, 50, 50
TestParameter, Measurement.Timing.Hold, 1
TestParameter, Measurement.Timing.Delay, 0
TestParameter, Measurement.Adc.HighSpeed.Mode, AUTO
TestParameter, Measurement.Adc.HighSpeed.Coeff, 1
TestParameter, Measurement.Adc.HighResolution.AutoZero, OFF
TestParameter, Measurement.Adc.HighResolution.Mode, AUTO
TestParameter, Measurement.Adc.HighResolution.Coeff, 127
TestParameter, Measurement.WaitTime.Source.Coeff, 1
TestParameter, Measurement.WaitTime.Source.Offset, 0
TestParameter, Measurement.WaitTime.Monitor.Coeff, 1
TestParameter, Measurement.WaitTime.Monitor.Offset, 0
TestParameter, Function.User.Name, AbsId, AbsIs
TestParameter, Function.User.Unit, A, A
TestParameter, Function.User.Definition, abs(Id), abs(Is)
TestParameter, Output.Graph.Enabled, true
TestParameter, Output.Graph.AutoScaling, false
TestParameter, Output.Graph.XAxis.Data, Vg
TestParameter, Output.Graph.XAxis.Scale, Linear
TestParameter, Output.Graph.XAxis.Left, -10
TestParameter, Output.Graph.XAxis.Right, 10
TestParameter, Output.Graph.XAxis.RunTimeAutoScale, true
TestParameter, Output.Graph.YAxis.Data, AbsId, AbsIs
TestParameter, Output.Graph.YAxis.Scale, Log, Log
TestParameter, Output.Graph.YAxis.Bottom, 0, 0
TestParameter, Output.Graph.YAxis.Top, 1, 1
TestParameter, Output.Graph.YAxis.Group, Group 1, Group 1
TestParameter, Output.Graph.YAxis.RunTimeAutoScale, true, true
TestParameter, Output.List.Data, Vg, Id, Is, Vd, Vs, Ig, AbsId, AbsIs
TestParameter, AutoAnalysis.Interpolation, false
TestParameter, AutoAnalysis.Line1.Enabled, false
TestParameter, AutoAnalysis.Line1.Type, 1
TestParameter, AutoAnalysis.Line1.Fix, True
TestParameter, AutoAnalysis.Line1.YAxis, 0
TestParameter, AutoAnalysis.Line1.Point1.Type, 0
TestParameter, AutoAnalysis.Line1.Point1.XY.X, 
TestParameter, AutoAnalysis.Line1.Point1.XY.Y, 
TestParameter, AutoAnalysis.Line1.Point1.Data.Var, 
TestParameter, AutoAnalysis.Line1.Point1.Data.Condition, 
TestParameter, AutoAnalysis.Line1.Point1.Data.Start, false
TestParameter, AutoAnalysis.Line1.Point1.Data.StartVar, 
TestParameter, AutoAnalysis.Line1.Point1.Data.StartCondition, 
TestParameter, AutoAnalysis.Line1.Point2.Type, 0
TestParameter, AutoAnalysis.Line1.Point2.XY.X, 
TestParameter, AutoAnalysis.Line1.Point2.XY.Y, 
TestParameter, AutoAnalysis.Line1.Point2.Data.Var, 
TestParameter, AutoAnalysis.Line1.Point2.Data.Condition, 
TestParameter, AutoAnalysis.Line1.Point2.Data.Start, false
TestParameter, AutoAnalysis.Line1.Point2.Data.StartVar, 
TestParameter, AutoAnalysis.Line1.Point2.Data.StartCondition, 
TestParameter, AutoAnalysis.Line1.GradientExpr, 0
TestParameter, AutoAnalysis.Line2.Enabled, false
TestParameter, AutoAnalysis.Line2.Type, 1
TestParameter, AutoAnalysis.Line2.Fix, True
TestParameter, AutoAnalysis.Line2.YAxis, 0
TestParameter, AutoAnalysis.Line2.Point1.Type, 0
TestParameter, AutoAnalysis.Line2.Point1.XY.X, 
TestParameter, AutoAnalysis.Line2.Point1.XY.Y, 
TestParameter, AutoAnalysis.Line2.Point1.Data.Var, 
TestParameter, AutoAnalysis.Line2.Point1.Data.Condition, 
TestParameter, AutoAnalysis.Line2.Point1.Data.Start, false
TestParameter, AutoAnalysis.Line2.Point1.Data.StartVar, 
TestParameter, AutoAnalysis.Line2.Point1.Data.StartCondition, 
TestParameter, AutoAnalysis.Line2.Point2.Type, 0
TestParameter, AutoAnalysis.Line2.Point2.XY.X, 
TestParameter, AutoAnalysis.Line2.Point2.XY.Y, 
TestParameter, AutoAnalysis.Line2.Point2.Data.Var, 
TestParameter, AutoAnalysis.Line2.Point2.Data.Condition, 
TestParameter, AutoAnalysis.Line2.Point2.Data.Start, false
TestParameter, AutoAnalysis.Line2.Point2.Data.StartVar, 
TestParameter, AutoAnalysis.Line2.Point2.Data.StartCondition, 
TestParameter, AutoAnalysis.Line2.GradientExpr, 0
TestParameter, AutoAnalysis.Marker.Enabled, false
TestParameter, AutoAnalysis.Marker.Data.Var, 
TestParameter, AutoAnalysis.Marker.Data.Condition, 
TestParameter, AutoAnalysis.Marker.Data.Start, false
TestParameter, AutoAnalysis.Marker.Data.StartVar, 
TestParameter, AutoAnalysis.Marker.Data.StartCondition, 
MetaData, TestRecord.EntryPoint, true
MetaData, TestRecord.RecordTime, 10/22/2019 12:44:02
MetaData, TestRecord.TestTarget, 2um-3
MetaData, TestRecord.IterationIndex, 5
MetaData, TestRecord.Preservation, true
MetaData, TestRecord.Flag, 
MetaData, TestRecord.Remarks, 
MetaData, TestRecord.LinkKey, f4ad3a3c-af86-433f-984d-fe13bdf7299c
Dimension1, 402, 402, 402, 402, 402, 402, 402, 402
Dimension2, 1, 1, 1, 1, 1, 1, 1, 1
DataName, Vg, Vd, Vs, Id, Is, Ig, AbsId, AbsIs
DataValue, -10, 2, 0, 2.46626E-11, -2.45439E-11, -4.48E-12, 2.46626E-11, 2.45439E-11
DataValue, -9.9, 2, 0, 2.16011E-11, -2.28096E-11, -3.11E-12, 2.16011E-11, 2.28096E-11
DataValue, -9.8, 2, 0, 2.14943E-11, -2.17178E-11, -3.49E-12, 2.14943E-11, 2.17178E-11
DataValue, -9.7000000000000011, 2, 0, 2.04316E-11, -1.9878999999999998E-11, -1.64E-12, 2.04316E-11, 1.9878999999999998E-11
DataValue, -9.6, 2, 0, 1.91276E-11, -1.9804599999999998E-11, -1E-12, 1.91276E-11, 1.9804599999999998E-11
DataValue, -9.5, 2, 0, 1.7728899999999998E-11, -1.81227E-11, -1.1E-12, 1.7728899999999998E-11, 1.81227E-11
DataValue, -9.4, 2, 0, 1.67403E-11, -1.67648E-11, -9.2E-13, 1.67403E-11, 1.67648E-11
DataValue, -9.3, 2, 0, 1.52619E-11, -1.552E-11, -4.2E-13, 1.52619E-11, 1.552E-11
DataValue, -9.2000000000000011, 2, 0, 1.3823E-11, -1.41585E-11, -2.7E-13, 1.3823E-11, 1.41585E-11
DataValue, -9.1, 2, 0, 1.31771E-11, -1.34246E-11, -1E-13, 1.31771E-11, 1.34246E-11
DataValue, -9, 2, 0, 1.2466099999999999E-11, -1.2443E-11, -4E-14, 1.2466099999999999E-11, 1.2443E-11
DataValue, -8.9, 2, 0, 1.13101E-11, -1.15309E-11, 2.7E-13, 1.13101E-11, 1.15309E-11
DataValue, -8.8, 2, 0, 1.06126E-11, -1.08716E-11, 2.8E-13, 1.06126E-11, 1.08716E-11
DataValue, -8.7000000000000011, 2, 0, 1.01485E-11, -9.1404699999999985E-12, 2E-13, 1.01485E-11, 9.1404699999999985E-12
DataValue, -8.6, 2, 0, 7.5369E-12, -6.35508E-12, 1.1E-13, 7.5369E-12, 6.35508E-12
DataValue, -8.5, 2, 0, 5.50315E-12, -5.5126499999999995E-12, 1.6E-13, 5.50315E-12, 5.5126499999999995E-12
DataValue, -8.4, 2, 0, 5.4244799999999995E-12, -5.4201699999999995E-12, 1.4E-13, 5.4244799999999995E-12, 5.4201699999999995E-12
DataValue, -8.3, 2, 0, 5.3666599999999993E-12, -5.21758E-12, 1.4E-13, 5.3666599999999993E-12, 5.21758E-12
DataValue, -8.2, 2, 0, 4.8913499999999993E-12, -5.0147E-12, 3.9E-13, 4.8913499999999993E-12, 5.0147E-12
DataValue, -8.1, 2, 0, 4.14166E-12, -4.1615999999999996E-12, 1.32E-12, 4.14166E-12, 4.1615999999999996E-12
DataValue, -8, 2, 0, 3.8210299999999995E-12, -4.29152E-12, 9E-13, 3.8210299999999995E-12, 4.29152E-12
DataValue, -7.9, 2, 0, 3.5710599999999995E-12, -3.6372799999999996E-12, 5.1E-13, 3.5710599999999995E-12, 3.6372799999999996E-12
DataValue, -7.8, 2, 0, 3.4791299999999995E-12, -3.63931E-12, 6.3E-13, 3.4791299999999995E-12, 3.63931E-12
DataValue, -7.7, 2, 0, 3.5003899999999998E-12, -3.46982E-12, 8.8E-13, 3.5003899999999998E-12, 3.46982E-12
DataValue, -7.6000000000000005, 2, 0, 3.02645E-12, -3.1441499999999997E-12, 8.8E-13, 3.02645E-12, 3.1441499999999997E-12
DataValue, -7.5, 2, 0, 2.9031699999999996E-12, -2.94915E-12, 7.4E-13, 2.9031699999999996E-12, 2.94915E-12
DataValue, -7.4, 2, 0, 2.5028299999999997E-12, -2.5132199999999997E-12, 6.7E-13, 2.5028299999999997E-12, 2.5132199999999997E-12
DataValue, -7.3, 2, 0, 2.21275E-12, -2.2169799999999997E-12, 1.1E-12, 2.21275E-12, 2.2169799999999997E-12
DataValue, -7.2, 2, 0, 1.9135199999999997E-12, -2.0051E-12, 1E-12, 1.9135199999999997E-12, 2.0051E-12
DataValue, -7.1000000000000005, 2, 0, 1.8139199999999998E-12, -1.85639E-12, 1.29E-12, 1.8139199999999998E-12, 1.85639E-12
DataValue, -7, 2, 0, 1.5507899999999999E-12, -1.59038E-12, 1.11E-12, 1.5507899999999999E-12, 1.59038E-12
DataValue, -6.9, 2, 0, 1.37051E-12, -1.40098E-12, 1.3E-12, 1.37051E-12, 1.40098E-12
DataValue, -6.8, 2, 0, 1.1828899999999998E-12, -1.29739E-12, 4.5E-13, 1.1828899999999998E-12, 1.29739E-12
DataValue, -6.7, 2, 0, 1.1269199999999998E-12, -1.1483499999999999E-12, 5E-13, 1.1269199999999998E-12, 1.1483499999999999E-12
DataValue, -6.6000000000000005, 2, 0, 8.9791E-13, -9.8129999999999987E-13, 7.9E-13, 8.9791E-13, 9.8129999999999987E-13
DataValue, -6.5, 2, 0, 8.588999999999999E-13, -8.7618999999999992E-13, 7.9E-13, 8.588999999999999E-13, 8.7618999999999992E-13
DataValue, -6.4, 2, 0, 7.252699999999999E-13, -7.5612999999999993E-13, 5.6E-13, 7.252699999999999E-13, 7.5612999999999993E-13
DataValue, -6.3, 2, 0, 5.9168E-13, -6.1800999999999991E-13, 5.3E-13, 5.9168E-13, 6.1800999999999991E-13
DataValue, -6.2, 2, 0, 5.2679999999999994E-13, -4.9323999999999993E-13, 6.4E-13, 5.2679999999999994E-13, 4.9323999999999993E-13
DataValue, -6.1000000000000005, 2, 0, 4.2139E-13, -4.7158999999999991E-13, 6.9E-13, 4.2139E-13, 4.7158999999999991E-13
DataValue, -6, 2, 0, 3.5782E-13, -4.1378999999999995E-13, 6.8E-13, 3.5782E-13, 4.1378999999999995E-13
DataValue, -5.9, 2, 0, 3.3008E-13, -3.5413E-13, 6.8E-13, 3.3008E-13, 3.5413E-13
DataValue, -5.8, 2, 0, 2.7234E-13, -3.0653999999999997E-13, 8E-13, 2.7234E-13, 3.0653999999999997E-13
DataValue, -5.7, 2, 0, 2.0332999999999998E-13, -2.5605999999999997E-13, 1.02E-12, 2.0332999999999998E-13, 2.5605999999999997E-13
DataValue, -5.6000000000000005, 2, 0, 1.6809E-13, -2.1669999999999998E-13, 8.1E-13, 1.6809E-13, 2.1669999999999998E-13
DataValue, -5.5, 2, 0, 1.3959E-13, -1.7870999999999998E-13, 9.2E-13, 1.3959E-13, 1.7870999999999998E-13
DataValue, -5.4, 2, 0, 1.1745E-13, -1.7095E-13, 1.01E-12, 1.1745E-13, 1.7095E-13
DataValue, -5.3, 2, 0, 8.280999999999999E-14, -1.4730999999999998E-13, 9.3E-13, 8.280999999999999E-14, 1.4730999999999998E-13
DataValue, -5.2, 2, 0, 7.293999999999999E-14, -1.1238E-13, 7.8E-13, 7.293999999999999E-14, 1.1238E-13
DataValue, -5.1000000000000005, 2, 0, 6.3969999999999991E-14, -1.0105E-13, 7.7E-13, 6.3969999999999991E-14, 1.0105E-13
DataValue, -5, 2, 0, 4.7849999999999993E-14, -8.288E-14, 5.7E-13, 4.7849999999999993E-14, 8.288E-14
DataValue, -4.9, 2, 0, 3.9749999999999995E-14, -7.0589999999999993E-14, 5.1E-13, 3.9749999999999995E-14, 7.0589999999999993E-14
DataValue, -4.8, 2, 0, 1.9159999999999997E-14, -6.283E-14, 8.8E-13, 1.9159999999999997E-14, 6.283E-14
DataValue, -4.7, 2, 0, 1.7329999999999997E-14, -4.8609999999999994E-14, 5.7E-13, 1.7329999999999997E-14, 4.8609999999999994E-14
DataValue, -4.6000000000000005, 2, 0, 8.6999999999999994E-16, -4.4699999999999995E-14, 7.1E-13, 8.6999999999999994E-16, 4.4699999999999995E-14
DataValue, -4.5, 2, 0, -1.56E-15, -3.9009999999999996E-14, 7.1E-13, 1.56E-15, 3.9009999999999996E-14
DataValue, -4.4, 2, 0, -6.7699999999999992E-15, -3.7269999999999995E-14, 8.7E-13, 6.7699999999999992E-15, 3.7269999999999995E-14
DataValue, -4.3, 2, 0, -1.3739999999999998E-14, -4.162E-14, 1.12E-12, 1.3739999999999998E-14, 4.162E-14
DataValue, -4.2, 2, 0, -1.683E-14, -3.175E-14, 9.7E-13, 1.683E-14, 3.175E-14
DataValue, -4.1, 2, 0, -2.7859999999999998E-14, -2.7489999999999998E-14, 9.9E-13, 2.7859999999999998E-14, 2.7489999999999998E-14
DataValue, -4, 2, 0, -1.8669999999999998E-14, -2.6749999999999997E-14, 1.2E-12, 1.8669999999999998E-14, 2.6749999999999997E-14
DataValue, -3.9, 2, 0, -2.5459999999999996E-14, -2.693E-14, 1.31E-12, 2.5459999999999996E-14, 2.693E-14
DataValue, -3.8000000000000003, 2, 0, -2.0499999999999998E-14, -2.5459999999999996E-14, 7.6E-13, 2.0499999999999998E-14, 2.5459999999999996E-14
DataValue, -3.7, 2, 0, -3.4E-14, -3.355E-14, 9.1E-13, 3.4E-14, 3.355E-14
DataValue, -3.6, 2, 0, -2.913E-14, -2.52E-14, 7.4E-13, 2.913E-14, 2.52E-14
DataValue, -3.5, 2, 0, -2.78E-14, -2.8799999999999995E-14, 1.63E-12, 2.78E-14, 2.8799999999999995E-14
DataValue, -3.4, 2, 0, -2.7829999999999997E-14, -2.982E-14, 1.18E-12, 2.7829999999999997E-14, 2.982E-14
DataValue, -3.3000000000000003, 2, 0, -2.8039999999999997E-14, -2.8439999999999997E-14, 7.8E-13, 2.8039999999999997E-14, 2.8439999999999997E-14
DataValue, -3.2, 2, 0, -2.979E-14, -2.044E-14, 8.9E-13, 2.979E-14, 2.044E-14
DataValue, -3.1, 2, 0, -2.6879999999999998E-14, -2.1369999999999998E-14, 7.5E-13, 2.6879999999999998E-14, 2.1369999999999998E-14
DataValue, -3, 2, 0, -2.1829999999999997E-14, -2.0219999999999998E-14, 8.9E-13, 2.1829999999999997E-14, 2.0219999999999998E-14
DataValue, -2.9, 2, 0, -2.4999999999999998E-14, -2.2519999999999998E-14, 7.3E-13, 2.4999999999999998E-14, 2.2519999999999998E-14
DataValue, -2.8000000000000003, 2, 0, -1.932E-14, -1.5879999999999998E-14, 4E-13, 1.932E-14, 1.5879999999999998E-14
DataValue, -2.7, 2, 0, -1.7939999999999997E-14, -1.484E-14, 5.3E-13, 1.7939999999999997E-14, 1.484E-14
DataValue, -2.6, 2, 0, -2.1719999999999998E-14, -2.0329999999999997E-14, 9.5E-13, 2.1719999999999998E-14, 2.0329999999999997E-14
DataValue, -2.5, 2, 0, -2.889E-14, -2.2279999999999998E-14, 8.1E-13, 2.889E-14, 2.2279999999999998E-14
DataValue, -2.4, 2, 0, -2.8659999999999995E-14, -2.302E-14, 1.05E-12, 2.8659999999999995E-14, 2.302E-14
DataValue, -2.3000000000000003, 2, 0, -2.6519999999999997E-14, -1.92E-14, 6E-13, 2.6519999999999997E-14, 1.92E-14
DataValue, -2.2, 2, 0, -1.8009999999999997E-14, -1.7619999999999998E-14, 5.4E-13, 1.8009999999999997E-14, 1.7619999999999998E-14
DataValue, -2.1, 2, 0, -2.2469999999999998E-14, -2.016E-14, 6E-13, 2.2469999999999998E-14, 2.016E-14
DataValue, -2, 2, 0, -2.6169999999999997E-14, -2.283E-14, 8.5E-13, 2.6169999999999997E-14, 2.283E-14
DataValue, -1.9000000000000001, 2, 0, -2.039E-14, -2.1389999999999998E-14, 6.1E-13, 2.039E-14, 2.1389999999999998E-14
DataValue, -1.8, 2, 0, -1.927E-14, -1.939E-14, 6.2E-13, 1.927E-14, 1.939E-14
DataValue, -1.7, 2, 0, -2.374E-14, -2.22E-14, 8.1E-13, 2.374E-14, 2.22E-14
DataValue, -1.6, 2, 0, -3.1019999999999997E-14, -2.7269999999999997E-14, 1.06E-12, 3.1019999999999997E-14, 2.7269999999999997E-14
DataValue, -1.5, 2, 0, -2.4149999999999997E-14, -3.0229999999999995E-14, 8.1E-13, 2.4149999999999997E-14, 3.0229999999999995E-14
DataValue, -1.4000000000000001, 2, 0, -3.049E-14, -2.7619999999999997E-14, 8.6E-13, 3.049E-14, 2.7619999999999997E-14
DataValue, -1.3, 2, 0, -2.4709999999999996E-14, -2.3639999999999998E-14, 7E-13, 2.4709999999999996E-14, 2.3639999999999998E-14
DataValue, -1.2, 2, 0, -2.6139999999999996E-14, -1.9439999999999997E-14, 7.4E-13, 2.6139999999999996E-14, 1.9439999999999997E-14
DataValue, -1.1, 2, 0, -2.2139999999999998E-14, -2.63E-14, 1.14E-12, 2.2139999999999998E-14, 2.63E-14
DataValue, -1, 2, 0, -2.3589999999999997E-14, -2.299E-14, 5.9E-13, 2.3589999999999997E-14, 2.299E-14
DataValue, -0.9, 2, 0, -2.3339999999999998E-14, -2.412E-14, 1.14E-12, 2.3339999999999998E-14, 2.412E-14
DataValue, -0.8, 2, 0, -2.5209999999999998E-14, -2.2659999999999998E-14, 7.5E-13, 2.5209999999999998E-14, 2.2659999999999998E-14
DataValue, -0.70000000000000007, 2, 0, -4.353E-14, -2.8349999999999997E-14, 7.4E-13, 4.353E-14, 2.8349999999999997E-14
DataValue, -0.6, 2, 0, -2.2039999999999997E-14, -2.74E-14, 1.22E-12, 2.2039999999999997E-14, 2.74E-14
DataValue, -0.5, 2, 0, -2.0689999999999998E-14, -2.1549999999999997E-14, 1.11E-12, 2.0689999999999998E-14, 2.1549999999999997E-14
DataValue, -0.4, 2, 0, -3.007E-14, -2.3199999999999998E-14, 8.8E-13, 3.007E-14, 2.3199999999999998E-14
DataValue, -0.3, 2, 0, -2.48E-14, -1.814E-14, 6.3E-13, 2.48E-14, 1.814E-14
DataValue, -0.2, 2, 0, -2.1529999999999998E-14, -1.946E-14, 6.5E-13, 2.1529999999999998E-14, 1.946E-14
DataValue, -0.1, 2, 0, -2.2629999999999997E-14, -1.892E-14, 1.15E-12, 2.2629999999999997E-14, 1.892E-14
DataValue, 0, 2, 0, -2.508E-14, -2.006E-14, 8.8E-13, 2.508E-14, 2.006E-14
DataValue, 0.1, 2, 0, -2.6049999999999997E-14, -1.7679999999999997E-14, 6.5E-13, 2.6049999999999997E-14, 1.7679999999999997E-14
DataValue, 0.2, 2, 0, -2.6739999999999998E-14, -2.262E-14, 6.9E-13, 2.6739999999999998E-14, 2.262E-14
DataValue, 0.3, 2, 0, -2.6779999999999997E-14, -2.405E-14, 8E-13, 2.6779999999999997E-14, 2.405E-14
DataValue, 0.4, 2, 0, -2.2999999999999997E-14, -2.0239999999999998E-14, 8.5E-13, 2.2999999999999997E-14, 2.0239999999999998E-14
DataValue, 0.5, 2, 0, -2.5989999999999998E-14, -3.8309999999999997E-14, 1.31E-12, 2.5989999999999998E-14, 3.8309999999999997E-14
DataValue, 0.6, 2, 0, -3.5009999999999994E-14, -3.334E-14, 1.45E-12, 3.5009999999999994E-14, 3.334E-14
DataValue, 0.70000000000000007, 2, 0, -3.1999999999999996E-14, -2.332E-14, 8.8E-13, 3.1999999999999996E-14, 2.332E-14
DataValue, 0.8, 2, 0, -3.9879999999999996E-14, -2.943E-14, 9.8E-13, 3.9879999999999996E-14, 2.943E-14
DataValue, 0.9, 2, 0, -2.7889999999999998E-14, -2.3829999999999998E-14, 7.5E-13, 2.7889999999999998E-14, 2.3829999999999998E-14
DataValue, 1, 2, 0, -2.1439999999999998E-14, -1.969E-14, 6.4E-13, 2.1439999999999998E-14, 1.969E-14
DataValue, 1.1, 2, 0, -2.325E-14, -2.384E-14, 7.4E-13, 2.325E-14, 2.384E-14
DataValue, 1.2, 2, 0, -5.720999999999999E-14, -3.394E-14, 2.25E-12, 5.720999999999999E-14, 3.394E-14
DataValue, 1.3, 2, 0, -2.93E-14, -2.576E-14, 1.34E-12, 2.93E-14, 2.576E-14
DataValue, 1.4000000000000001, 2, 0, -2.7429999999999997E-14, -2.6879999999999998E-14, 1.33E-12, 2.7429999999999997E-14, 2.6879999999999998E-14
DataValue, 1.5, 2, 0, -2.147E-14, -1.9679999999999998E-14, 7.5E-13, 2.147E-14, 1.9679999999999998E-14
DataValue, 1.6, 2, 0, -2.4649999999999998E-14, -2.065E-14, 6.9E-13, 2.4649999999999998E-14, 2.065E-14
DataValue, 1.7, 2, 0, -2.11E-14, -2.1039999999999998E-14, 7.6E-13, 2.11E-14, 2.1039999999999998E-14
DataValue, 1.8, 2, 0, -2.9939999999999997E-14, -2.1929999999999998E-14, 8.2E-13, 2.9939999999999997E-14, 2.1929999999999998E-14
DataValue, 1.9000000000000001, 2, 0, -2.5049999999999998E-14, -2.112E-14, 4.7E-13, 2.5049999999999998E-14, 2.112E-14
DataValue, 2, 2, 0, -2.248E-14, -2.0079999999999998E-14, 6.1E-13, 2.248E-14, 2.0079999999999998E-14
DataValue, 2.1, 2, 0, -1.803E-14, -1.573E-14, 5.1E-13, 1.803E-14, 1.573E-14
DataValue, 2.2, 2, 0, -2.2179999999999997E-14, -2.1129999999999997E-14, 5.9E-13, 2.2179999999999997E-14, 2.1129999999999997E-14
DataValue, 2.3000000000000003, 2, 0, -2.1999999999999998E-14, -1.817E-14, 6.3E-13, 2.1999999999999998E-14, 1.817E-14
