
SetupTitle, Transfer Curve - Back Gate
PrimitiveTest, I/V Sweep
TestParameter, Context.MainFrame, B1500A
TestParameter, Channel.UnitType, SMU, SMU, SMU
TestParameter, Channel.Unit, SMU1:HR/AS, SMU4:HR/AS, SMU6:MP
TestParameter, Channel.IName, Id, Is, Ig
TestParameter, Channel.VName, Vd, Vs, Vg
TestParameter, Channel.Mode, V, V, V
TestParameter, Channel.Func, CONST, CONST, VAR1
TestParameter, Channel.Index, 
TestParameter, Channel.Time, 
TestParameter, Measurement.Port.Unit, SMU1:HR/AS, SMU4:HR/AS, SMU6:MP
TestParameter, Measurement.Port.SeriesResistor, NONE, NONE, NONE
TestParameter, Measurement.Port.Filter, ON, ON, ON
TestParameter, Measurement.Port.OutputVoltageComparison, 0, 0, 0
TestParameter, Measurement.Primary.Locus, Double
TestParameter, Measurement.Primary.Scale, LINEAR
TestParameter, Measurement.Primary.Start, 2
TestParameter, Measurement.Primary.Stop, -20
TestParameter, Measurement.Primary.Step, -0.1
TestParameter, Measurement.Primary.Compliance, 1E-05
TestParameter, Measurement.Primary.PowerCompliance, 0
TestParameter, Measurement.Aborting.Condition, CONTINUE AT ANY
TestParameter, Measurement.PostOutput.Value, START
TestParameter, Measurement.PostOutput.Retention, OFF
TestParameter, Measurement.Bias.Source, 2, 0, 2
TestParameter, Measurement.Bias.Compliance, 1E-05, 1E-05, 1E-05
TestParameter, Measurement.Monitor.Unit, SMU1:HR/AS, SMU4:HR/AS, SMU6:MP
TestParameter, Measurement.Monitor.Adc, HR ADC, HR ADC, HR ADC
TestParameter, Measurement.Monitor.Measurement, Compliance Side, Compliance Side, Compliance Side
TestParameter, Measurement.Monitor.RangingMode, LIMITED, LIMITED, FIXED
TestParameter, Measurement.Monitor.RangeBoundary, 10pA, 10pA, 10nA
TestParameter, Measurement.Monitor.RangeRating, BY FULL RANGE, BY FULL RANGE, 
TestParameter, Measurement.Monitor.RangeRatingCoeff, 50, 50, 50
TestParameter, Measurement.Timing.Hold, 1
TestParameter, Measurement.Timing.Delay, 0
TestParameter, Measurement.Adc.HighSpeed.Mode, AUTO
TestParameter, Measurement.Adc.HighSpeed.Coeff, 1
TestParameter, Measurement.Adc.HighResolution.AutoZero, OFF
TestParameter, Measurement.Adc.HighResolution.Mode, AUTO
TestParameter, Measurement.Adc.HighResolution.Coeff, 127
TestParameter, Measurement.WaitTime.Source.Coeff, 1
TestParameter, Measurement.WaitTime.Source.Offset, 0
TestParameter, Measurement.WaitTime.Monitor.Coeff, 1
TestParameter, Measurement.WaitTime.Monitor.Offset, 0
TestParameter, Function.User.Name, AbsId, AbsIs
TestParameter, Function.User.Unit, A, A
TestParameter, Function.User.Definition, abs(Id), abs(Is)
TestParameter, Output.Graph.Enabled, true
TestParameter, Output.Graph.AutoScaling, false
TestParameter, Output.Graph.XAxis.Data, Vg
TestParameter, Output.Graph.XAxis.Scale, Linear
TestParameter, Output.Graph.XAxis.Left, -10
TestParameter, Output.Graph.XAxis.Right, 10
TestParameter, Output.Graph.XAxis.RunTimeAutoScale, true
TestParameter, Output.Graph.YAxis.Data, AbsId, AbsIs
TestParameter, Output.Graph.YAxis.Scale, Log, Log
TestParameter, Output.Graph.YAxis.Bottom, 0, 0
TestParameter, Output.Graph.YAxis.Top, 1, 1
TestParameter, Output.Graph.YAxis.Group, Group 1, Group 1
TestParameter, Output.Graph.YAxis.RunTimeAutoScale, true, true
TestParameter, Output.List.Data, Vg, Id, Is, Vd, Vs, Ig, AbsId, AbsIs
TestParameter, AutoAnalysis.Interpolation, false
TestParameter, AutoAnalysis.Line1.Enabled, false
TestParameter, AutoAnalysis.Line1.Type, 1
TestParameter, AutoAnalysis.Line1.Fix, True
TestParameter, AutoAnalysis.Line1.YAxis, 0
TestParameter, AutoAnalysis.Line1.Point1.Type, 0
TestParameter, AutoAnalysis.Line1.Point1.XY.X, 
TestParameter, AutoAnalysis.Line1.Point1.XY.Y, 
TestParameter, AutoAnalysis.Line1.Point1.Data.Var, 
TestParameter, AutoAnalysis.Line1.Point1.Data.Condition, 
TestParameter, AutoAnalysis.Line1.Point1.Data.Start, false
TestParameter, AutoAnalysis.Line1.Point1.Data.StartVar, 
TestParameter, AutoAnalysis.Line1.Point1.Data.StartCondition, 
TestParameter, AutoAnalysis.Line1.Point2.Type, 0
TestParameter, AutoAnalysis.Line1.Point2.XY.X, 
TestParameter, AutoAnalysis.Line1.Point2.XY.Y, 
TestParameter, AutoAnalysis.Line1.Point2.Data.Var, 
TestParameter, AutoAnalysis.Line1.Point2.Data.Condition, 
TestParameter, AutoAnalysis.Line1.Point2.Data.Start, false
TestParameter, AutoAnalysis.Line1.Point2.Data.StartVar, 
TestParameter, AutoAnalysis.Line1.Point2.Data.StartCondition, 
TestParameter, AutoAnalysis.Line1.GradientExpr, 0
TestParameter, AutoAnalysis.Line2.Enabled, false
TestParameter, AutoAnalysis.Line2.Type, 1
TestParameter, AutoAnalysis.Line2.Fix, True
TestParameter, AutoAnalysis.Line2.YAxis, 0
TestParameter, AutoAnalysis.Line2.Point1.Type, 0
TestParameter, AutoAnalysis.Line2.Point1.XY.X, 
TestParameter, AutoAnalysis.Line2.Point1.XY.Y, 
TestParameter, AutoAnalysis.Line2.Point1.Data.Var, 
TestParameter, AutoAnalysis.Line2.Point1.Data.Condition, 
TestParameter, AutoAnalysis.Line2.Point1.Data.Start, false
TestParameter, AutoAnalysis.Line2.Point1.Data.StartVar, 
TestParameter, AutoAnalysis.Line2.Point1.Data.StartCondition, 
TestParameter, AutoAnalysis.Line2.Point2.Type, 0
TestParameter, AutoAnalysis.Line2.Point2.XY.X, 
TestParameter, AutoAnalysis.Line2.Point2.XY.Y, 
TestParameter, AutoAnalysis.Line2.Point2.Data.Var, 
TestParameter, AutoAnalysis.Line2.Point2.Data.Condition, 
TestParameter, AutoAnalysis.Line2.Point2.Data.Start, false
TestParameter, AutoAnalysis.Line2.Point2.Data.StartVar, 
TestParameter, AutoAnalysis.Line2.Point2.Data.StartCondition, 
TestParameter, AutoAnalysis.Line2.GradientExpr, 0
TestParameter, AutoAnalysis.Marker.Enabled, false
TestParameter, AutoAnalysis.Marker.Data.Var, 
TestParameter, AutoAnalysis.Marker.Data.Condition, 
TestParameter, AutoAnalysis.Marker.Data.Start, false
TestParameter, AutoAnalysis.Marker.Data.StartVar, 
TestParameter, AutoAnalysis.Marker.Data.StartCondition, 
MetaData, TestRecord.EntryPoint, true
MetaData, TestRecord.RecordTime, 10/22/2019 12:56:18
MetaData, TestRecord.TestTarget, 2um-3
MetaData, TestRecord.IterationIndex, 6
MetaData, TestRecord.Preservation, true
MetaData, TestRecord.Flag, 
MetaData, TestRecord.Remarks, 
MetaData, TestRecord.LinkKey, 38c333ce-0320-45e2-a68d-a07c0eede4a6
Dimension1, 442, 442, 442, 442, 442, 442, 442, 442
Dimension2, 1, 1, 1, 1, 1, 1, 1, 1
DataName, Vg, Vd, Vs, Id, Is, Ig, AbsId, AbsIs
DataValue, 2, 2, 0, -1.61E-14, -1.247E-14, 4.1E-13, 1.61E-14, 1.247E-14
DataValue, 1.9000000000000001, 2, 0, -1.5399999999999998E-15, -7.17E-15, 1.6E-13, 1.5399999999999998E-15, 7.17E-15
DataValue, 1.8, 2, 0, 3.5599999999999995E-15, -1.4199999999999998E-15, -1E-14, 3.5599999999999995E-15, 1.4199999999999998E-15
DataValue, 1.7, 2, 0, 6.1899999999999992E-15, 1.7699999999999998E-15, -1E-13, 6.1899999999999992E-15, 1.7699999999999998E-15
DataValue, 1.6, 2, 0, 9.6999999999999991E-15, 2.8399999999999996E-15, -2.4E-13, 9.6999999999999991E-15, 2.8399999999999996E-15
DataValue, 1.5, 2, 0, 1.2649999999999999E-14, 6.8299999999999994E-15, -3.8E-13, 1.2649999999999999E-14, 6.8299999999999994E-15
DataValue, 1.4000000000000001, 2, 0, 1.5039999999999998E-14, 6.8699999999999992E-15, -4.6E-13, 1.5039999999999998E-14, 6.8699999999999992E-15
DataValue, 1.3, 2, 0, 1.1939999999999999E-14, 9.3799999999999986E-15, -6.4E-13, 1.1939999999999999E-14, 9.3799999999999986E-15
DataValue, 1.2, 2, 0, 1.6489999999999998E-14, 8.64E-15, -7.9E-13, 1.6489999999999998E-14, 8.64E-15
DataValue, 1.1, 2, 0, 2.5519999999999998E-14, 1.5479999999999998E-14, -6.9E-13, 2.5519999999999998E-14, 1.5479999999999998E-14
DataValue, 1, 2, 0, 1.7969999999999998E-14, 1.178E-14, -7.7E-13, 1.7969999999999998E-14, 1.178E-14
DataValue, 0.9, 2, 0, 2.2039999999999997E-14, 1.556E-14, -8E-13, 2.2039999999999997E-14, 1.556E-14
DataValue, 0.8, 2, 0, 2.0049999999999997E-14, 1.4799999999999998E-14, -8.8E-13, 2.0049999999999997E-14, 1.4799999999999998E-14
DataValue, 0.70000000000000007, 2, 0, 2.4009999999999997E-14, 1.5389999999999998E-14, -1.19E-12, 2.4009999999999997E-14, 1.5389999999999998E-14
DataValue, 0.6, 2, 0, 2.175E-14, 1.491E-14, -8.8E-13, 2.175E-14, 1.491E-14
DataValue, 0.5, 2, 0, 2.079E-14, 1.559E-14, -8E-13, 2.079E-14, 1.559E-14
DataValue, 0.4, 2, 0, 2.899E-14, 2.147E-14, -1.15E-12, 2.899E-14, 2.147E-14
DataValue, 0.3, 2, 0, 1.889E-14, 1.2009999999999999E-14, -7.7E-13, 1.889E-14, 1.2009999999999999E-14
DataValue, 0.2, 2, 0, 2.0259999999999997E-14, 1.5129999999999998E-14, -1.01E-12, 2.0259999999999997E-14, 1.5129999999999998E-14
DataValue, 0.1, 2, 0, 2.262E-14, 1.7539999999999997E-14, -1.07E-12, 2.262E-14, 1.7539999999999997E-14
DataValue, 0, 2, 0, 2.9629999999999996E-14, 2.2859999999999997E-14, -9.6E-13, 2.9629999999999996E-14, 2.2859999999999997E-14
DataValue, -0.1, 2, 0, 2.138E-14, 1.6089999999999998E-14, -9E-13, 2.138E-14, 1.6089999999999998E-14
DataValue, -0.2, 2, 0, 2.018E-14, 1.474E-14, -1.11E-12, 2.018E-14, 1.474E-14
DataValue, -0.3, 2, 0, 2.56E-14, 3.2799999999999997E-14, -1.79E-12, 2.56E-14, 3.2799999999999997E-14
DataValue, -0.4, 2, 0, 2.3029999999999998E-14, 1.552E-14, -6.6E-13, 2.3029999999999998E-14, 1.552E-14
DataValue, -0.5, 2, 0, 1.7469999999999997E-14, 1.4969999999999998E-14, -6.6E-13, 1.7469999999999997E-14, 1.4969999999999998E-14
DataValue, -0.6, 2, 0, 2.2159999999999997E-14, 1.6329999999999998E-14, -8.2E-13, 2.2159999999999997E-14, 1.6329999999999998E-14
DataValue, -0.70000000000000007, 2, 0, 1.9559999999999998E-14, 1.545E-14, -1E-12, 1.9559999999999998E-14, 1.545E-14
DataValue, -0.8, 2, 0, 2.2209999999999998E-14, 1.3519999999999999E-14, -9.1E-13, 2.2209999999999998E-14, 1.3519999999999999E-14
DataValue, -0.9, 2, 0, 2.5259999999999998E-14, 2.4769999999999998E-14, -1.11E-12, 2.5259999999999998E-14, 2.4769999999999998E-14
DataValue, -1, 2, 0, 3.3089999999999995E-14, 2.3119999999999997E-14, -1.23E-12, 3.3089999999999995E-14, 2.3119999999999997E-14
DataValue, -1.1, 2, 0, 2.234E-14, 1.667E-14, -8.2E-13, 2.234E-14, 1.667E-14
DataValue, -1.2, 2, 0, 2.4409999999999997E-14, 1.9259999999999998E-14, -9.1E-13, 2.4409999999999997E-14, 1.9259999999999998E-14
DataValue, -1.3, 2, 0, 2.365E-14, 2.0189999999999997E-14, -1.03E-12, 2.365E-14, 2.0189999999999997E-14
DataValue, -1.4000000000000001, 2, 0, 2.6969999999999998E-14, 2.0619999999999998E-14, -8.6E-13, 2.6969999999999998E-14, 2.0619999999999998E-14
DataValue, -1.5, 2, 0, 1.9209999999999998E-14, 1.997E-14, -9.4E-13, 1.9209999999999998E-14, 1.997E-14
DataValue, -1.6, 2, 0, 2.4479999999999997E-14, 3.0569999999999996E-14, -1.2E-12, 2.4479999999999997E-14, 3.0569999999999996E-14
DataValue, -1.7, 2, 0, 3.4829999999999995E-14, 2.2559999999999997E-14, -1.3E-12, 3.4829999999999995E-14, 2.2559999999999997E-14
DataValue, -1.8, 2, 0, 2.021E-14, 1.571E-14, -9.9E-13, 2.021E-14, 1.571E-14
DataValue, -1.9000000000000001, 2, 0, 3.042E-14, 2.023E-14, -7.4E-13, 3.042E-14, 2.023E-14
DataValue, -2, 2, 0, 2.0819999999999997E-14, 1.8439999999999998E-14, -9.2E-13, 2.0819999999999997E-14, 1.8439999999999998E-14
DataValue, -2.1, 2, 0, 1.894E-14, 1.673E-14, -8.2E-13, 1.894E-14, 1.673E-14
DataValue, -2.2, 2, 0, 4.427E-14, 2.412E-14, -1.24E-12, 4.427E-14, 2.412E-14
DataValue, -2.3000000000000003, 2, 0, 2.461E-14, 1.9939999999999998E-14, -9E-13, 2.461E-14, 1.9939999999999998E-14
DataValue, -2.4, 2, 0, 1.4829999999999998E-14, 1.1139999999999999E-14, -5.1E-13, 1.4829999999999998E-14, 1.1139999999999999E-14
DataValue, -2.5, 2, 0, 2.794E-14, 2.4439999999999998E-14, -8.7E-13, 2.794E-14, 2.4439999999999998E-14
DataValue, -2.6, 2, 0, 2.056E-14, 1.552E-14, -7.2E-13, 2.056E-14, 1.552E-14
DataValue, -2.7, 2, 0, 1.6679999999999998E-14, 1.3099999999999999E-14, -8.6E-13, 1.6679999999999998E-14, 1.3099999999999999E-14
DataValue, -2.8000000000000003, 2, 0, 2.7059999999999997E-14, 1.0649999999999999E-14, -6.8E-13, 2.7059999999999997E-14, 1.0649999999999999E-14
DataValue, -2.9, 2, 0, 2.6569999999999998E-14, 8.12E-15, -8.3E-13, 2.6569999999999998E-14, 8.12E-15
DataValue, -3, 2, 0, 2.7009999999999997E-14, 1.035E-14, -6.5E-13, 2.7009999999999997E-14, 1.035E-14
DataValue, -3.1, 2, 0, 2.9699999999999996E-14, 1.8499999999999997E-15, -5.5E-13, 2.9699999999999996E-14, 1.8499999999999997E-15
DataValue, -3.2, 2, 0, 4.3689999999999995E-14, 2.7E-16, -6.4E-13, 4.3689999999999995E-14, 2.7E-16
DataValue, -3.3000000000000003, 2, 0, 3.39E-14, -2.54E-15, -6.7E-13, 3.39E-14, 2.54E-15
DataValue, -3.4, 2, 0, 4.3399999999999997E-14, -8.479999999999999E-15, -6.8E-13, 4.3399999999999997E-14, 8.479999999999999E-15
DataValue, -3.5, 2, 0, 4.793E-14, -1.3859999999999999E-14, -6.4E-13, 4.793E-14, 1.3859999999999999E-14
DataValue, -3.6, 2, 0, 5.3689999999999996E-14, -2.2379999999999998E-14, -9.2E-13, 5.3689999999999996E-14, 2.2379999999999998E-14
DataValue, -3.7, 2, 0, 7.259E-14, -1.6069999999999998E-14, -1.34E-12, 7.259E-14, 1.6069999999999998E-14
DataValue, -3.8000000000000003, 2, 0, 7.9279999999999991E-14, -3.47E-14, -5.4E-13, 7.9279999999999991E-14, 3.47E-14
DataValue, -3.9, 2, 0, 8.428E-14, -3.6499999999999996E-14, -1.36E-12, 8.428E-14, 3.6499999999999996E-14
DataValue, -4, 2, 0, 9.0329999999999992E-14, -4.2299999999999994E-14, -1.25E-12, 9.0329999999999992E-14, 4.2299999999999994E-14
DataValue, -4.1, 2, 0, 1.2043E-13, -6.7899999999999993E-14, -1.12E-12, 1.2043E-13, 6.7899999999999993E-14
DataValue, -4.2, 2, 0, 1.3172E-13, -7.166E-14, -2.68E-12, 1.3172E-13, 7.166E-14
DataValue, -4.3, 2, 0, 1.5118E-13, -8.546E-14, -3.02E-12, 1.5118E-13, 8.546E-14
DataValue, -4.4, 2, 0, 1.6558999999999998E-13, -1.2961E-13, -8.7E-13, 1.6558999999999998E-13, 1.2961E-13
DataValue, -4.5, 2, 0, 2.0155999999999998E-13, -1.6806999999999999E-13, -5.1E-13, 2.0155999999999998E-13, 1.6806999999999999E-13
DataValue, -4.6000000000000005, 2, 0, 2.2170999999999997E-13, -1.721E-13, -1.02E-12, 2.2170999999999997E-13, 1.721E-13
DataValue, -4.7, 2, 0, 2.6539E-13, -2.3431E-13, -1.58E-12, 2.6539E-13, 2.3431E-13
DataValue, -4.8, 2, 0, 3.1978E-13, -2.7376E-13, -1.22E-12, 3.1978E-13, 2.7376E-13
DataValue, -4.9, 2, 0, 3.4547E-13, -2.656E-13, -1.31E-12, 3.4547E-13, 2.656E-13
DataValue, -5, 2, 0, 3.3836999999999995E-13, -3.0980999999999997E-13, -5.3E-13, 3.3836999999999995E-13, 3.0980999999999997E-13
DataValue, -5.1000000000000005, 2, 0, 4.0243999999999995E-13, -3.3889E-13, -1.06E-12, 4.0243999999999995E-13, 3.3889E-13
DataValue, -5.2, 2, 0, 4.2711999999999995E-13, -3.8779999999999997E-13, -1.04E-12, 4.2711999999999995E-13, 3.8779999999999997E-13
DataValue, -5.3, 2, 0, 4.9387999999999991E-13, -4.5819E-13, -1.48E-12, 4.9387999999999991E-13, 4.5819E-13
DataValue, -5.4, 2, 0, 5.2111E-13, -4.9994E-13, -7.9E-13, 5.2111E-13, 4.9994E-13
DataValue, -5.5, 2, 0, 6.1197E-13, -5.3456E-13, -4.6E-13, 6.1197E-13, 5.3456E-13
DataValue, -5.6000000000000005, 2, 0, 6.3587E-13, -5.8362999999999991E-13, -6.9E-13, 6.3587E-13, 5.8362999999999991E-13
DataValue, -5.7, 2, 0, 7.3546E-13, -7.133599999999999E-13, -9.9E-13, 7.3546E-13, 7.133599999999999E-13
DataValue, -5.8, 2, 0, 8.3248999999999992E-13, -8.170899999999999E-13, -5.3E-13, 8.3248999999999992E-13, 8.170899999999999E-13
DataValue, -5.9, 2, 0, 9.1617E-13, -8.920999999999999E-13, -7E-13, 9.1617E-13, 8.920999999999999E-13
DataValue, -6, 2, 0, 1.03076E-12, -1.00814E-12, -8.5E-13, 1.03076E-12, 1.00814E-12
DataValue, -6.1000000000000005, 2, 0, 1.0959E-12, -1.0137899999999999E-12, -5.2E-13, 1.0959E-12, 1.0137899999999999E-12
DataValue, -6.2, 2, 0, 1.12859E-12, -1.0613799999999999E-12, -8.6E-13, 1.12859E-12, 1.0613799999999999E-12
DataValue, -6.3, 2, 0, 1.2180699999999999E-12, -1.1875099999999999E-12, -8.5E-13, 1.2180699999999999E-12, 1.1875099999999999E-12
DataValue, -6.4, 2, 0, 1.4475299999999998E-12, -1.3933999999999999E-12, -1.31E-12, 1.4475299999999998E-12, 1.3933999999999999E-12
DataValue, -6.5, 2, 0, 1.5636E-12, -1.5722599999999998E-12, -7.5E-13, 1.5636E-12, 1.5722599999999998E-12
DataValue, -6.6000000000000005, 2, 0, 1.6927099999999998E-12, -1.6325799999999999E-12, -1.17E-12, 1.6927099999999998E-12, 1.6325799999999999E-12
DataValue, -6.7, 2, 0, 1.72157E-12, -1.6004599999999998E-12, -6.7E-13, 1.72157E-12, 1.6004599999999998E-12
DataValue, -6.8, 2, 0, 1.77821E-12, -1.67304E-12, -1.29E-12, 1.77821E-12, 1.67304E-12
DataValue, -6.9, 2, 0, 1.8856499999999997E-12, -1.8427999999999998E-12, -1.34E-12, 1.8856499999999997E-12, 1.8427999999999998E-12
DataValue, -7, 2, 0, 1.8080599999999999E-12, -1.8512799999999998E-12, -7.8E-13, 1.8080599999999999E-12, 1.8512799999999998E-12
DataValue, -7.1000000000000005, 2, 0, 2.1667399999999997E-12, -2.07759E-12, -7.2E-13, 2.1667399999999997E-12, 2.07759E-12
DataValue, -7.2, 2, 0, 2.1745299999999996E-12, -2.17568E-12, -8E-13, 2.1745299999999996E-12, 2.17568E-12
DataValue, -7.3, 2, 0, 2.49525E-12, -2.37832E-12, -8.9E-13, 2.49525E-12, 2.37832E-12
DataValue, -7.4, 2, 0, 2.70681E-12, -2.5925599999999996E-12, -7.5E-13, 2.70681E-12, 2.5925599999999996E-12
DataValue, -7.5, 2, 0, 2.8912299999999996E-12, -2.8032799999999997E-12, -8.6E-13, 2.8912299999999996E-12, 2.8032799999999997E-12
DataValue, -7.6000000000000005, 2, 0, 2.92987E-12, -2.86379E-12, -8.2E-13, 2.92987E-12, 2.86379E-12
DataValue, -7.7, 2, 0, 3.1266299999999996E-12, -3.08989E-12, -1.05E-12, 3.1266299999999996E-12, 3.08989E-12
DataValue, -7.8, 2, 0, 3.1763399999999998E-12, -3.2707899999999996E-12, -8.6E-13, 3.1763399999999998E-12, 3.2707899999999996E-12
DataValue, -7.9, 2, 0, 3.4731299999999998E-12, -3.4274399999999998E-12, -1.01E-12, 3.4731299999999998E-12, 3.4274399999999998E-12
DataValue, -8, 2, 0, 3.80148E-12, -3.8426299999999993E-12, -1.26E-12, 3.80148E-12, 3.8426299999999993E-12
DataValue, -8.1, 2, 0, 4.3360199999999995E-12, -4.05904E-12, -1.12E-12, 4.3360199999999995E-12, 4.05904E-12
DataValue, -8.2, 2, 0, 4.5167299999999995E-12, -4.40075E-12, -1.67E-12, 4.5167299999999995E-12, 4.40075E-12
DataValue, -8.3, 2, 0, 4.95918E-12, -4.7186299999999993E-12, -8.8E-13, 4.95918E-12, 4.7186299999999993E-12
DataValue, -8.4, 2, 0, 4.98339E-12, -4.94446E-12, -6.6E-13, 4.98339E-12, 4.94446E-12
DataValue, -8.5, 2, 0, 5.1281699999999995E-12, -5.04406E-12, -8.2E-13, 5.1281699999999995E-12, 5.04406E-12
DataValue, -8.6, 2, 0, 5.44754E-12, -5.2195299999999993E-12, -1.42E-12, 5.44754E-12, 5.2195299999999993E-12
DataValue, -8.7000000000000011, 2, 0, 5.43927E-12, -5.3836199999999992E-12, -6.8E-13, 5.43927E-12, 5.3836199999999992E-12
DataValue, -8.8, 2, 0, 5.74078E-12, -5.63423E-12, -6E-13, 5.74078E-12, 5.63423E-12
DataValue, -8.9, 2, 0, 5.9366399999999992E-12, -5.9885599999999993E-12, -1.19E-12, 5.9366399999999992E-12, 5.9885599999999993E-12
DataValue, -9, 2, 0, 6.7042299999999992E-12, -6.5596199999999991E-12, -1.21E-12, 6.7042299999999992E-12, 6.5596199999999991E-12
DataValue, -9.1, 2, 0, 6.5409099999999994E-12, -6.6627199999999993E-12, -8.4E-13, 6.5409099999999994E-12, 6.6627199999999993E-12
DataValue, -9.2000000000000011, 2, 0, 7.2023499999999995E-12, -6.8602599999999993E-12, -9.2E-13, 7.2023499999999995E-12, 6.8602599999999993E-12
DataValue, -9.3, 2, 0, 7.55214E-12, -7.57738E-12, -1.15E-12, 7.55214E-12, 7.57738E-12
DataValue, -9.4, 2, 0, 8.0068799999999987E-12, -8.12092E-12, -1.67E-12, 8.0068799999999987E-12, 8.12092E-12
DataValue, -9.5, 2, 0, 8.4410999999999988E-12, -8.34945E-12, -8.2E-13, 8.4410999999999988E-12, 8.34945E-12
DataValue, -9.6, 2, 0, 9.06392E-12, -9.021699999999999E-12, -1.01E-12, 9.06392E-12, 9.021699999999999E-12
DataValue, -9.7000000000000011, 2, 0, 7.476119999999999E-12, -7.4570799999999988E-12, -2.4E-13, 7.476119999999999E-12, 7.4570799999999988E-12
DataValue, -9.8, 2, 0, 7.9087299999999988E-12, -7.6347299999999989E-12, -6.1E-13, 7.9087299999999988E-12, 7.6347299999999989E-12
DataValue, -9.9, 2, 0, 8.31668E-12, -8.2687E-12, -9.7E-13, 8.31668E-12, 8.2687E-12
DataValue, -10, 2, 0, 8.3717599999999991E-12, -8.3003E-12, -1.9E-13, 8.3717599999999991E-12, 8.3003E-12
DataValue, -10.1, 2, 0, 8.54872E-12, -8.61349E-12, -3.7E-13, 8.54872E-12, 8.61349E-12
