
SetupTitle, Transfer Curve - Back Gate
PrimitiveTest, I/V Sweep
TestParameter, Context.MainFrame, B1500A
TestParameter, Channel.UnitType, SMU, SMU, SMU
TestParameter, Channel.Unit, SMU1:HR/AS, SMU4:HR/AS, SMU6:MP
TestParameter, Channel.IName, Id, Is, Ig
TestParameter, Channel.VName, Vd, Vs, Vg
TestParameter, Channel.Mode, V, V, V
TestParameter, Channel.Func, CONST, CONST, VAR1
TestParameter, Channel.Index, 
TestParameter, Channel.Time, 
TestParameter, Measurement.Port.Unit, SMU1:HR/AS, SMU4:HR/AS, SMU6:MP
TestParameter, Measurement.Port.SeriesResistor, NONE, NONE, NONE
TestParameter, Measurement.Port.Filter, ON, ON, ON
TestParameter, Measurement.Port.OutputVoltageComparison, 0, 0, 0
TestParameter, Measurement.Primary.Locus, Double
TestParameter, Measurement.Primary.Scale, LINEAR
TestParameter, Measurement.Primary.Start, -20
TestParameter, Measurement.Primary.Stop, 2
TestParameter, Measurement.Primary.Step, 0.1
TestParameter, Measurement.Primary.Compliance, 1E-05
TestParameter, Measurement.Primary.PowerCompliance, 0
TestParameter, Measurement.Aborting.Condition, CONTINUE AT ANY
TestParameter, Measurement.PostOutput.Value, START
TestParameter, Measurement.PostOutput.Retention, OFF
TestParameter, Measurement.Bias.Source, 2, 0, -20
TestParameter, Measurement.Bias.Compliance, 1E-05, 1E-05, 1E-05
TestParameter, Measurement.Monitor.Unit, SMU1:HR/AS, SMU4:HR/AS, SMU6:MP
TestParameter, Measurement.Monitor.Adc, HR ADC, HR ADC, HR ADC
TestParameter, Measurement.Monitor.Measurement, Compliance Side, Compliance Side, Compliance Side
TestParameter, Measurement.Monitor.RangingMode, LIMITED, LIMITED, FIXED
TestParameter, Measurement.Monitor.RangeBoundary, 10pA, 10pA, 10nA
TestParameter, Measurement.Monitor.RangeRating, BY FULL RANGE, BY FULL RANGE, 
TestParameter, Measurement.Monitor.RangeRatingCoeff, 50, 50, 50
TestParameter, Measurement.Timing.Hold, 0.1
TestParameter, Measurement.Timing.Delay, 0
TestParameter, Measurement.Adc.HighSpeed.Mode, AUTO
TestParameter, Measurement.Adc.HighSpeed.Coeff, 1
TestParameter, Measurement.Adc.HighResolution.AutoZero, OFF
TestParameter, Measurement.Adc.HighResolution.Mode, AUTO
TestParameter, Measurement.Adc.HighResolution.Coeff, 127
TestParameter, Measurement.WaitTime.Source.Coeff, 1
TestParameter, Measurement.WaitTime.Source.Offset, 0
TestParameter, Measurement.WaitTime.Monitor.Coeff, 1
TestParameter, Measurement.WaitTime.Monitor.Offset, 0
TestParameter, Function.User.Name, AbsId, AbsIs
TestParameter, Function.User.Unit, A, A
TestParameter, Function.User.Definition, abs(Id), abs(Is)
TestParameter, Output.Graph.Enabled, true
TestParameter, Output.Graph.AutoScaling, false
TestParameter, Output.Graph.XAxis.Data, Vg
TestParameter, Output.Graph.XAxis.Scale, Linear
TestParameter, Output.Graph.XAxis.Left, -10
TestParameter, Output.Graph.XAxis.Right, 10
TestParameter, Output.Graph.XAxis.RunTimeAutoScale, true
TestParameter, Output.Graph.YAxis.Data, AbsId, AbsIs
TestParameter, Output.Graph.YAxis.Scale, Log, Log
TestParameter, Output.Graph.YAxis.Bottom, 0, 0
TestParameter, Output.Graph.YAxis.Top, 1, 1
TestParameter, Output.Graph.YAxis.Group, Group 1, Group 1
TestParameter, Output.Graph.YAxis.RunTimeAutoScale, true, true
TestParameter, Output.List.Data, Vg, Id, Is, Vd, Vs, Ig, AbsId, AbsIs
TestParameter, AutoAnalysis.Interpolation, false
TestParameter, AutoAnalysis.Line1.Enabled, false
TestParameter, AutoAnalysis.Line1.Type, 1
TestParameter, AutoAnalysis.Line1.Fix, True
TestParameter, AutoAnalysis.Line1.YAxis, 0
TestParameter, AutoAnalysis.Line1.Point1.Type, 0
TestParameter, AutoAnalysis.Line1.Point1.XY.X, 
TestParameter, AutoAnalysis.Line1.Point1.XY.Y, 
TestParameter, AutoAnalysis.Line1.Point1.Data.Var, 
TestParameter, AutoAnalysis.Line1.Point1.Data.Condition, 
TestParameter, AutoAnalysis.Line1.Point1.Data.Start, false
TestParameter, AutoAnalysis.Line1.Point1.Data.StartVar, 
TestParameter, AutoAnalysis.Line1.Point1.Data.StartCondition, 
TestParameter, AutoAnalysis.Line1.Point2.Type, 0
TestParameter, AutoAnalysis.Line1.Point2.XY.X, 
TestParameter, AutoAnalysis.Line1.Point2.XY.Y, 
TestParameter, AutoAnalysis.Line1.Point2.Data.Var, 
TestParameter, AutoAnalysis.Line1.Point2.Data.Condition, 
TestParameter, AutoAnalysis.Line1.Point2.Data.Start, false
TestParameter, AutoAnalysis.Line1.Point2.Data.StartVar, 
TestParameter, AutoAnalysis.Line1.Point2.Data.StartCondition, 
TestParameter, AutoAnalysis.Line1.GradientExpr, 0
TestParameter, AutoAnalysis.Line2.Enabled, false
TestParameter, AutoAnalysis.Line2.Type, 1
TestParameter, AutoAnalysis.Line2.Fix, True
TestParameter, AutoAnalysis.Line2.YAxis, 0
TestParameter, AutoAnalysis.Line2.Point1.Type, 0
TestParameter, AutoAnalysis.Line2.Point1.XY.X, 
TestParameter, AutoAnalysis.Line2.Point1.XY.Y, 
TestParameter, AutoAnalysis.Line2.Point1.Data.Var, 
TestParameter, AutoAnalysis.Line2.Point1.Data.Condition, 
TestParameter, AutoAnalysis.Line2.Point1.Data.Start, false
TestParameter, AutoAnalysis.Line2.Point1.Data.StartVar, 
TestParameter, AutoAnalysis.Line2.Point1.Data.StartCondition, 
TestParameter, AutoAnalysis.Line2.Point2.Type, 0
TestParameter, AutoAnalysis.Line2.Point2.XY.X, 
TestParameter, AutoAnalysis.Line2.Point2.XY.Y, 
TestParameter, AutoAnalysis.Line2.Point2.Data.Var, 
TestParameter, AutoAnalysis.Line2.Point2.Data.Condition, 
TestParameter, AutoAnalysis.Line2.Point2.Data.Start, false
TestParameter, AutoAnalysis.Line2.Point2.Data.StartVar, 
TestParameter, AutoAnalysis.Line2.Point2.Data.StartCondition, 
TestParameter, AutoAnalysis.Line2.GradientExpr, 0
TestParameter, AutoAnalysis.Marker.Enabled, false
TestParameter, AutoAnalysis.Marker.Data.Var, 
TestParameter, AutoAnalysis.Marker.Data.Condition, 
TestParameter, AutoAnalysis.Marker.Data.Start, false
TestParameter, AutoAnalysis.Marker.Data.StartVar, 
TestParameter, AutoAnalysis.Marker.Data.StartCondition, 
MetaData, TestRecord.EntryPoint, true
MetaData, TestRecord.RecordTime, 10/22/2019 13:22:58
MetaData, TestRecord.TestTarget, 2um-5
MetaData, TestRecord.IterationIndex, 8
MetaData, TestRecord.Preservation, true
MetaData, TestRecord.Flag, 
MetaData, TestRecord.Remarks, 
MetaData, TestRecord.LinkKey, fcad1d0c-6ddb-4f91-8add-e07a7b471c91
Dimension1, 442, 442, 442, 442, 442, 442, 442, 442
Dimension2, 1, 1, 1, 1, 1, 1, 1, 1
DataName, Vg, Vd, Vs, Id, Is, Ig, AbsId, AbsIs
DataValue, -20, 2, 0, 1.29305E-11, -2.4211E-12, -1.89E-12, 1.29305E-11, 2.4211E-12
DataValue, -19.900000000000002, 2, 0, 2.24672E-12, -2.3139999999999997E-14, -2.1E-13, 2.24672E-12, 2.3139999999999997E-14
DataValue, -19.8, 2, 0, 2.2804E-13, -3.7725E-13, -1.7E-13, 2.2804E-13, 3.7725E-13
DataValue, -19.7, 2, 0, 3.2854E-13, -2.3570999999999996E-13, -2E-14, 3.2854E-13, 2.3570999999999996E-13
DataValue, -19.6, 2, 0, 1.9950999999999998E-13, -1.4881E-13, 1.6E-13, 1.9950999999999998E-13, 1.4881E-13
DataValue, -19.5, 2, 0, 1.0327999999999999E-13, -1.3429E-13, 1.1E-13, 1.0327999999999999E-13, 1.3429E-13
DataValue, -19.400000000000002, 2, 0, 2.7689999999999996E-13, -4.0777999999999995E-13, 3.8E-13, 2.7689999999999996E-13, 4.0777999999999995E-13
DataValue, -19.3, 2, 0, 1.8646999999999999E-13, -7.6339999999999993E-14, 3.2E-13, 1.8646999999999999E-13, 7.6339999999999993E-14
DataValue, -19.2, 2, 0, 1.903E-14, -3.645E-14, 4E-13, 1.903E-14, 3.645E-14
DataValue, -19.1, 2, 0, 2.039E-14, -4.835E-14, 5.2E-13, 2.039E-14, 4.835E-14
DataValue, -19, 2, 0, -2.01E-15, -2.7559999999999998E-14, 6.8E-13, 2.01E-15, 2.7559999999999998E-14
DataValue, -18.900000000000002, 2, 0, 2.8899999999999996E-15, -4.192E-14, 8.7E-13, 2.8899999999999996E-15, 4.192E-14
DataValue, -18.8, 2, 0, 1.5399999999999998E-15, -3.265E-14, 7.6E-13, 1.5399999999999998E-15, 3.265E-14
DataValue, -18.7, 2, 0, 1.7609999999999997E-14, -2.1478999999999999E-13, 7.1E-13, 1.7609999999999997E-14, 2.1478999999999999E-13
DataValue, -18.6, 2, 0, -7.5E-15, -4.392E-14, 1.04E-12, 7.5E-15, 4.392E-14
DataValue, -18.5, 2, 0, -3.95E-15, -5.4299999999999993E-14, 9.8E-13, 3.95E-15, 5.4299999999999993E-14
DataValue, -18.400000000000002, 2, 0, 4.6499999999999994E-15, -3.4939999999999994E-14, 7.8E-13, 4.6499999999999994E-15, 3.4939999999999994E-14
DataValue, -18.3, 2, 0, 3.91E-15, -3.764E-14, 6.8E-13, 3.91E-15, 3.764E-14
DataValue, -18.2, 2, 0, 9.26E-15, -4.6749999999999996E-14, 9.8E-13, 9.26E-15, 4.6749999999999996E-14
DataValue, -18.1, 2, 0, 1.8186999999999999E-13, -6.5449999999999989E-14, 6.4E-13, 1.8186999999999999E-13, 6.5449999999999989E-14
DataValue, -18, 2, 0, 2.9122E-13, -3.0479999999999997E-13, 8E-13, 2.9122E-13, 3.0479999999999997E-13
DataValue, -17.900000000000002, 2, 0, 5.949499999999999E-13, -4.2786999999999997E-13, 1.16E-12, 5.949499999999999E-13, 4.2786999999999997E-13
DataValue, -17.8, 2, 0, 1.6013999999999999E-13, -8.213E-14, 1.29E-12, 1.6013999999999999E-13, 8.213E-14
DataValue, -17.7, 2, 0, 8.4224E-13, -8.5237999999999995E-13, 1.04E-12, 8.4224E-13, 8.5237999999999995E-13
DataValue, -17.6, 2, 0, 4.6581E-13, -2.3552E-13, 1.02E-12, 4.6581E-13, 2.3552E-13
DataValue, -17.5, 2, 0, 2.3611E-13, -3.0416999999999996E-13, 1E-12, 2.3611E-13, 3.0416999999999996E-13
DataValue, -17.400000000000002, 2, 0, 2.1809999999999997E-13, -1.5601999999999998E-13, 9.6E-13, 2.1809999999999997E-13, 1.5601999999999998E-13
DataValue, -17.3, 2, 0, 7.225E-14, -1.9521999999999998E-13, 7.5E-13, 7.225E-14, 1.9521999999999998E-13
DataValue, -17.2, 2, 0, 2.7669999999999997E-14, -5.757E-14, 7.8E-13, 2.7669999999999997E-14, 5.757E-14
DataValue, -17.1, 2, 0, 3.1029999999999995E-14, -6.233999999999999E-14, 5.8E-13, 3.1029999999999995E-14, 6.233999999999999E-14
DataValue, -17, 2, 0, 1.547E-14, -1.2402999999999998E-13, 8.8E-13, 1.547E-14, 1.2402999999999998E-13
DataValue, -16.9, 2, 0, 2.81E-15, -3.349E-14, 6.5E-13, 2.81E-15, 3.349E-14
DataValue, -16.8, 2, 0, 1.5009999999999997E-14, -2.7109999999999998E-14, 7E-13, 1.5009999999999997E-14, 2.7109999999999998E-14
DataValue, -16.7, 2, 0, -6.34E-15, -3.785E-14, 1.17E-12, 6.34E-15, 3.785E-14
DataValue, -16.6, 2, 0, -2.0899999999999996E-15, -4.1359999999999994E-14, 7.7E-13, 2.0899999999999996E-15, 4.1359999999999994E-14
DataValue, -16.5, 2, 0, 1.5359999999999997E-14, -9.998E-14, 9.3E-13, 1.5359999999999997E-14, 9.998E-14
DataValue, -16.4, 2, 0, 1.0408999999999999E-13, -1.1677999999999998E-13, 7.5E-13, 1.0408999999999999E-13, 1.1677999999999998E-13
DataValue, -16.3, 2, 0, 1.0389999999999999E-14, -5.082E-14, 6.9E-13, 1.0389999999999999E-14, 5.082E-14
DataValue, -16.2, 2, 0, 2.1009999999999997E-14, -6.333E-14, 1.13E-12, 2.1009999999999997E-14, 6.333E-14
DataValue, -16.1, 2, 0, 4.23E-15, -4.7979999999999995E-14, 6.5E-13, 4.23E-15, 4.7979999999999995E-14
DataValue, -16, 2, 0, 1.5799999999999998E-15, -4.426E-14, 9.3E-13, 1.5799999999999998E-15, 4.426E-14
DataValue, -15.9, 2, 0, -1.5739999999999998E-14, -2.6119999999999997E-14, 8.1E-13, 1.5739999999999998E-14, 2.6119999999999997E-14
DataValue, -15.8, 2, 0, -1.4639999999999998E-14, -3.1129999999999996E-14, 5.4E-13, 1.4639999999999998E-14, 3.1129999999999996E-14
DataValue, -15.700000000000001, 2, 0, -2.377E-14, -4.8919999999999995E-14, 1.06E-12, 2.377E-14, 4.8919999999999995E-14
DataValue, -15.6, 2, 0, -2.4709999999999996E-14, -2.4829999999999997E-14, 1.11E-12, 2.4709999999999996E-14, 2.4829999999999997E-14
DataValue, -15.5, 2, 0, -3.161E-14, -3.394E-14, 1.53E-12, 3.161E-14, 3.394E-14
DataValue, -15.4, 2, 0, -2.569E-14, -1.826E-14, 5.7E-13, 2.569E-14, 1.826E-14
DataValue, -15.3, 2, 0, -1.6279999999999998E-14, -2.924E-14, 1.16E-12, 1.6279999999999998E-14, 2.924E-14
DataValue, -15.200000000000001, 2, 0, -8.1999999999999991E-15, -4.691E-14, 1.37E-12, 8.1999999999999991E-15, 4.691E-14
DataValue, -15.1, 2, 0, -8.8399999999999985E-15, -4.625E-14, 8.2E-13, 8.8399999999999985E-15, 4.625E-14
DataValue, -15, 2, 0, -1.859E-14, -3.4E-14, 1.24E-12, 1.859E-14, 3.4E-14
DataValue, -14.9, 2, 0, -3.1589999999999995E-14, -2.3949999999999998E-14, 6.2E-13, 3.1589999999999995E-14, 2.3949999999999998E-14
DataValue, -14.8, 2, 0, -2.0569999999999998E-14, -2.8649999999999997E-14, 7.6E-13, 2.0569999999999998E-14, 2.8649999999999997E-14
DataValue, -14.700000000000001, 2, 0, -2.0849999999999998E-14, -2.0429999999999998E-14, 7.8E-13, 2.0849999999999998E-14, 2.0429999999999998E-14
DataValue, -14.6, 2, 0, -1.5479999999999998E-14, -3.397E-14, 8.3E-13, 1.5479999999999998E-14, 3.397E-14
DataValue, -14.5, 2, 0, -1.3119999999999999E-14, -2.899E-14, 9.1E-13, 1.3119999999999999E-14, 2.899E-14
DataValue, -14.4, 2, 0, -2.0919999999999998E-14, -2.7559999999999998E-14, 8.4E-13, 2.0919999999999998E-14, 2.7559999999999998E-14
DataValue, -14.3, 2, 0, -2.224E-14, -2.8419999999999997E-14, 9.5E-13, 2.224E-14, 2.8419999999999997E-14
DataValue, -14.200000000000001, 2, 0, -2.5489999999999997E-14, -2.99E-14, 1.13E-12, 2.5489999999999997E-14, 2.99E-14
DataValue, -14.1, 2, 0, -2.2629999999999997E-14, -2.6829999999999998E-14, 6.4E-13, 2.2629999999999997E-14, 2.6829999999999998E-14
DataValue, -14, 2, 0, -1.924E-14, -2.6289999999999998E-14, 7E-13, 1.924E-14, 2.6289999999999998E-14
DataValue, -13.9, 2, 0, -1.648E-14, -2.442E-14, 8.2E-13, 1.648E-14, 2.442E-14
DataValue, -13.8, 2, 0, -2.192E-14, -2.0359999999999998E-14, 7.5E-13, 2.192E-14, 2.0359999999999998E-14
DataValue, -13.700000000000001, 2, 0, -2.1829999999999997E-14, -2.0689999999999998E-14, 5.8E-13, 2.1829999999999997E-14, 2.0689999999999998E-14
DataValue, -13.6, 2, 0, -1.749E-14, -3.084E-14, 6.5E-13, 1.749E-14, 3.084E-14
DataValue, -13.5, 2, 0, -2.9319999999999995E-14, -3.146E-14, 9.1E-13, 2.9319999999999995E-14, 3.146E-14
DataValue, -13.4, 2, 0, -1.549E-14, -3.67E-14, 1.62E-12, 1.549E-14, 3.67E-14
DataValue, -13.3, 2, 0, -2.178E-14, -2.5329999999999998E-14, 9.9E-13, 2.178E-14, 2.5329999999999998E-14
DataValue, -13.200000000000001, 2, 0, -2.3589999999999997E-14, -2.881E-14, 1.04E-12, 2.3589999999999997E-14, 2.881E-14
DataValue, -13.1, 2, 0, -2.4549999999999997E-14, -3.1649999999999996E-14, 8.5E-13, 2.4549999999999997E-14, 3.1649999999999996E-14
DataValue, -13, 2, 0, -2.9879999999999995E-14, -2.4E-14, 5.4E-13, 2.9879999999999995E-14, 2.4E-14
DataValue, -12.9, 2, 0, -3.129E-14, -3.3049999999999995E-14, 1.07E-12, 3.129E-14, 3.3049999999999995E-14
DataValue, -12.8, 2, 0, -2.5239999999999998E-14, -3.125E-14, 1.88E-12, 2.5239999999999998E-14, 3.125E-14
DataValue, -12.700000000000001, 2, 0, -3.412E-14, -3.088E-14, 1.03E-12, 3.412E-14, 3.088E-14
DataValue, -12.6, 2, 0, -2.4159999999999998E-14, -2.442E-14, 1.02E-12, 2.4159999999999998E-14, 2.442E-14
DataValue, -12.5, 2, 0, -3.119E-14, -2.5629999999999997E-14, 1.33E-12, 3.119E-14, 2.5629999999999997E-14
DataValue, -12.4, 2, 0, -2.4859999999999998E-14, -2.4249999999999998E-14, 8.4E-13, 2.4859999999999998E-14, 2.4249999999999998E-14
DataValue, -12.3, 2, 0, -3.4269999999999996E-14, -2.5729999999999998E-14, 8.9E-13, 3.4269999999999996E-14, 2.5729999999999998E-14
DataValue, -12.200000000000001, 2, 0, -2.4899999999999997E-14, -1.8439999999999998E-14, 7.4E-13, 2.4899999999999997E-14, 1.8439999999999998E-14
DataValue, -12.1, 2, 0, -3.013E-14, -2.3919999999999997E-14, 1.26E-12, 3.013E-14, 2.3919999999999997E-14
DataValue, -12, 2, 0, -2.557E-14, -2.461E-14, 8.1E-13, 2.557E-14, 2.461E-14
DataValue, -11.9, 2, 0, -2.3219999999999998E-14, -2.11E-14, 9.9E-13, 2.3219999999999998E-14, 2.11E-14
DataValue, -11.8, 2, 0, -2.328E-14, -1.6869999999999998E-14, 8.7E-13, 2.328E-14, 1.6869999999999998E-14
DataValue, -11.700000000000001, 2, 0, -3.101E-14, -2.3499999999999998E-14, 1.28E-12, 3.101E-14, 2.3499999999999998E-14
DataValue, -11.6, 2, 0, -3.31E-14, -2.9769999999999996E-14, 8.6E-13, 3.31E-14, 2.9769999999999996E-14
DataValue, -11.5, 2, 0, -2.6329999999999997E-14, -2.4479999999999997E-14, 1.47E-12, 2.6329999999999997E-14, 2.4479999999999997E-14
DataValue, -11.4, 2, 0, -2.6119999999999997E-14, -1.992E-14, 7.3E-13, 2.6119999999999997E-14, 1.992E-14
DataValue, -11.3, 2, 0, -2.4859999999999998E-14, -2.187E-14, 7.6E-13, 2.4859999999999998E-14, 2.187E-14
DataValue, -11.200000000000001, 2, 0, -2.853E-14, -2.079E-14, 8.8E-13, 2.853E-14, 2.079E-14
DataValue, -11.1, 2, 0, -2.6239999999999997E-14, -2.3759999999999998E-14, 6.4E-13, 2.6239999999999997E-14, 2.3759999999999998E-14
DataValue, -11, 2, 0, -2.3379999999999997E-14, -1.275E-14, 8E-13, 2.3379999999999997E-14, 1.275E-14
DataValue, -10.9, 2, 0, -1.7899999999999998E-14, -1.6299999999999997E-14, 8.4E-13, 1.7899999999999998E-14, 1.6299999999999997E-14
DataValue, -10.8, 2, 0, -2.1509999999999998E-14, -1.4709999999999998E-14, 5.3E-13, 2.1509999999999998E-14, 1.4709999999999998E-14
DataValue, -10.700000000000001, 2, 0, -2.6899999999999998E-14, -1.8009999999999997E-14, 5.5E-13, 2.6899999999999998E-14, 1.8009999999999997E-14
DataValue, -10.6, 2, 0, -1.941E-14, -1.732E-14, 6.7E-13, 1.941E-14, 1.732E-14
DataValue, -10.5, 2, 0, -2.025E-14, -1.498E-14, 5.7E-13, 2.025E-14, 1.498E-14
DataValue, -10.4, 2, 0, -2.4459999999999998E-14, -1.8389999999999998E-14, 6.7E-13, 2.4459999999999998E-14, 1.8389999999999998E-14
DataValue, -10.3, 2, 0, -2.5819999999999998E-14, -1.9179999999999997E-14, 6.7E-13, 2.5819999999999998E-14, 1.9179999999999997E-14
DataValue, -10.200000000000001, 2, 0, -2.5589999999999998E-14, -2.278E-14, 1.27E-12, 2.5589999999999998E-14, 2.278E-14
DataValue, -10.1, 2, 0, -2.9559999999999996E-14, -2.2439999999999997E-14, 8.1E-13, 2.9559999999999996E-14, 2.2439999999999997E-14
DataValue, -10, 2, 0, -2.5979999999999997E-14, -2.028E-14, 7.4E-13, 2.5979999999999997E-14, 2.028E-14
DataValue, -9.9, 2, 0, -2.4999999999999998E-14, -1.782E-14, 9.6E-13, 2.4999999999999998E-14, 1.782E-14
DataValue, -9.8, 2, 0, -2.4999999999999998E-14, -1.889E-14, 9.5E-13, 2.4999999999999998E-14, 1.889E-14
DataValue, -9.7000000000000011, 2, 0, -2.7709999999999996E-14, -2.5259999999999998E-14, 1E-12, 2.7709999999999996E-14, 2.5259999999999998E-14
DataValue, -9.6, 2, 0, -2.7059999999999997E-14, -2.5469999999999998E-14, 8.9E-13, 2.7059999999999997E-14, 2.5469999999999998E-14
DataValue, -9.5, 2, 0, -3.004E-14, -2.489E-14, 1.24E-12, 3.004E-14, 2.489E-14
DataValue, -9.4, 2, 0, -4.019E-14, -2.868E-14, 8.2E-13, 4.019E-14, 2.868E-14
DataValue, -9.3, 2, 0, -2.267E-14, -1.915E-14, 8.9E-13, 2.267E-14, 1.915E-14
DataValue, -9.2000000000000011, 2, 0, -2.428E-14, -2.367E-14, 7.9E-13, 2.428E-14, 2.367E-14
DataValue, -9.1, 2, 0, -2.0869999999999997E-14, -2.203E-14, 8.9E-13, 2.0869999999999997E-14, 2.203E-14
DataValue, -9, 2, 0, -2.2299999999999997E-14, -2.0429999999999998E-14, 1.12E-12, 2.2299999999999997E-14, 2.0429999999999998E-14
DataValue, -8.9, 2, 0, -2.4479999999999997E-14, -2.189E-14, 5.4E-13, 2.4479999999999997E-14, 2.189E-14
DataValue, -8.8, 2, 0, -2.03E-14, -1.7799999999999997E-14, 1.05E-12, 2.03E-14, 1.7799999999999997E-14
DataValue, -8.7000000000000011, 2, 0, -2.5579999999999997E-14, -2.056E-14, 8.4E-13, 2.5579999999999997E-14, 2.056E-14
DataValue, -8.6, 2, 0, -2.5399999999999998E-14, -2.1669999999999998E-14, 8.8E-13, 2.5399999999999998E-14, 2.1669999999999998E-14
DataValue, -8.5, 2, 0, -2.8859999999999996E-14, -2.6939999999999997E-14, 1.46E-12, 2.8859999999999996E-14, 2.6939999999999997E-14
DataValue, -8.4, 2, 0, -2.6619999999999998E-14, -2.053E-14, 5.9E-13, 2.6619999999999998E-14, 2.053E-14
DataValue, -8.3, 2, 0, -2.4899999999999997E-14, -2.2509999999999997E-14, 1.16E-12, 2.4899999999999997E-14, 2.2509999999999997E-14
DataValue, -8.2, 2, 0, -2.6529999999999998E-14, -2.135E-14, 7.8E-13, 2.6529999999999998E-14, 2.135E-14
DataValue, -8.1, 2, 0, -2.5189999999999998E-14, -1.95E-14, 7.6E-13, 2.5189999999999998E-14, 1.95E-14
DataValue, -8, 2, 0, -2.2589999999999998E-14, -2.2259999999999998E-14, 1.28E-12, 2.2589999999999998E-14, 2.2259999999999998E-14
DataValue, -7.9, 2, 0, -2.442E-14, -2.2039999999999997E-14, 9.7E-13, 2.442E-14, 2.2039999999999997E-14
DataValue, -7.8, 2, 0, -2.7529999999999997E-14, -2.492E-14, 1.14E-12, 2.7529999999999997E-14, 2.492E-14
