
SetupTitle, Transfer Curve - Back Gate
PrimitiveTest, I/V Sweep
TestParameter, Context.MainFrame, B1500A
TestParameter, Channel.UnitType, SMU, SMU, SMU
TestParameter, Channel.Unit, SMU1:HR/AS, SMU4:HR/AS, SMU6:MP
TestParameter, Channel.IName, Id, Is, Ig
TestParameter, Channel.VName, Vd, Vs, Vg
TestParameter, Channel.Mode, V, V, V
TestParameter, Channel.Func, CONST, CONST, VAR1
TestParameter, Channel.Index, 
TestParameter, Channel.Time, 
TestParameter, Measurement.Port.Unit, SMU1:HR/AS, SMU4:HR/AS, SMU6:MP
TestParameter, Measurement.Port.SeriesResistor, NONE, NONE, NONE
TestParameter, Measurement.Port.Filter, ON, ON, ON
TestParameter, Measurement.Port.OutputVoltageComparison, 0, 0, 0
TestParameter, Measurement.Primary.Locus, Single
TestParameter, Measurement.Primary.Scale, LINEAR
TestParameter, Measurement.Primary.Start, -40
TestParameter, Measurement.Primary.Stop, 40
TestParameter, Measurement.Primary.Step, 0.364
TestParameter, Measurement.Primary.Compliance, 1E-05
TestParameter, Measurement.Primary.PowerCompliance, 0
TestParameter, Measurement.Aborting.Condition, CONTINUE AT ANY
TestParameter, Measurement.PostOutput.Value, START
TestParameter, Measurement.PostOutput.Retention, OFF
TestParameter, Measurement.Bias.Source, 2, 0, -40
TestParameter, Measurement.Bias.Compliance, 1E-05, 1E-05, 1E-05
TestParameter, Measurement.Monitor.Unit, SMU1:HR/AS, SMU4:HR/AS, SMU6:MP
TestParameter, Measurement.Monitor.Adc, HR ADC, HR ADC, HR ADC
TestParameter, Measurement.Monitor.Measurement, Compliance Side, Compliance Side, Compliance Side
TestParameter, Measurement.Monitor.RangingMode, AUTO, AUTO, FIXED
TestParameter, Measurement.Monitor.RangeBoundary, , , 10nA
TestParameter, Measurement.Monitor.RangeRating, BY FULL RANGE, BY FULL RANGE, 
TestParameter, Measurement.Monitor.RangeRatingCoeff, 50, 50, 50
TestParameter, Measurement.Timing.Hold, 2
TestParameter, Measurement.Timing.Delay, 0
TestParameter, Measurement.Adc.HighSpeed.Mode, AUTO
TestParameter, Measurement.Adc.HighSpeed.Coeff, 1
TestParameter, Measurement.Adc.HighResolution.AutoZero, OFF
TestParameter, Measurement.Adc.HighResolution.Mode, AUTO
TestParameter, Measurement.Adc.HighResolution.Coeff, 127
TestParameter, Measurement.WaitTime.Source.Coeff, 1
TestParameter, Measurement.WaitTime.Source.Offset, 0
TestParameter, Measurement.WaitTime.Monitor.Coeff, 1
TestParameter, Measurement.WaitTime.Monitor.Offset, 0
TestParameter, Function.User.Name, AbsId, AbsIs
TestParameter, Function.User.Unit, A, A
TestParameter, Function.User.Definition, abs(Id), abs(Is)
TestParameter, Output.Graph.Enabled, true
TestParameter, Output.Graph.AutoScaling, false
TestParameter, Output.Graph.XAxis.Data, Vg
TestParameter, Output.Graph.XAxis.Scale, Linear
TestParameter, Output.Graph.XAxis.Left, -10
TestParameter, Output.Graph.XAxis.Right, 10
TestParameter, Output.Graph.XAxis.RunTimeAutoScale, true
TestParameter, Output.Graph.YAxis.Data, AbsId, AbsIs
TestParameter, Output.Graph.YAxis.Scale, Log, Log
TestParameter, Output.Graph.YAxis.Bottom, 0, 0
TestParameter, Output.Graph.YAxis.Top, 1, 1
TestParameter, Output.Graph.YAxis.Group, Group 1, Group 1
TestParameter, Output.Graph.YAxis.RunTimeAutoScale, true, true
TestParameter, Output.List.Data, Vg, Id, Is, Vd, Vs, Ig, AbsId, AbsIs
TestParameter, AutoAnalysis.Interpolation, false
TestParameter, AutoAnalysis.Line1.Enabled, false
TestParameter, AutoAnalysis.Line1.Type, 1
TestParameter, AutoAnalysis.Line1.Fix, True
TestParameter, AutoAnalysis.Line1.YAxis, 0
TestParameter, AutoAnalysis.Line1.Point1.Type, 0
TestParameter, AutoAnalysis.Line1.Point1.XY.X, 
TestParameter, AutoAnalysis.Line1.Point1.XY.Y, 
TestParameter, AutoAnalysis.Line1.Point1.Data.Var, 
TestParameter, AutoAnalysis.Line1.Point1.Data.Condition, 
TestParameter, AutoAnalysis.Line1.Point1.Data.Start, false
TestParameter, AutoAnalysis.Line1.Point1.Data.StartVar, 
TestParameter, AutoAnalysis.Line1.Point1.Data.StartCondition, 
TestParameter, AutoAnalysis.Line1.Point2.Type, 0
TestParameter, AutoAnalysis.Line1.Point2.XY.X, 
TestParameter, AutoAnalysis.Line1.Point2.XY.Y, 
TestParameter, AutoAnalysis.Line1.Point2.Data.Var, 
TestParameter, AutoAnalysis.Line1.Point2.Data.Condition, 
TestParameter, AutoAnalysis.Line1.Point2.Data.Start, false
TestParameter, AutoAnalysis.Line1.Point2.Data.StartVar, 
TestParameter, AutoAnalysis.Line1.Point2.Data.StartCondition, 
TestParameter, AutoAnalysis.Line1.GradientExpr, 0
TestParameter, AutoAnalysis.Line2.Enabled, false
TestParameter, AutoAnalysis.Line2.Type, 1
TestParameter, AutoAnalysis.Line2.Fix, True
TestParameter, AutoAnalysis.Line2.YAxis, 0
TestParameter, AutoAnalysis.Line2.Point1.Type, 0
TestParameter, AutoAnalysis.Line2.Point1.XY.X, 
TestParameter, AutoAnalysis.Line2.Point1.XY.Y, 
TestParameter, AutoAnalysis.Line2.Point1.Data.Var, 
TestParameter, AutoAnalysis.Line2.Point1.Data.Condition, 
TestParameter, AutoAnalysis.Line2.Point1.Data.Start, false
TestParameter, AutoAnalysis.Line2.Point1.Data.StartVar, 
TestParameter, AutoAnalysis.Line2.Point1.Data.StartCondition, 
TestParameter, AutoAnalysis.Line2.Point2.Type, 0
TestParameter, AutoAnalysis.Line2.Point2.XY.X, 
TestParameter, AutoAnalysis.Line2.Point2.XY.Y, 
TestParameter, AutoAnalysis.Line2.Point2.Data.Var, 
TestParameter, AutoAnalysis.Line2.Point2.Data.Condition, 
TestParameter, AutoAnalysis.Line2.Point2.Data.Start, false
TestParameter, AutoAnalysis.Line2.Point2.Data.StartVar, 
TestParameter, AutoAnalysis.Line2.Point2.Data.StartCondition, 
TestParameter, AutoAnalysis.Line2.GradientExpr, 0
TestParameter, AutoAnalysis.Marker.Enabled, false
TestParameter, AutoAnalysis.Marker.Data.Var, 
TestParameter, AutoAnalysis.Marker.Data.Condition, 
TestParameter, AutoAnalysis.Marker.Data.Start, false
TestParameter, AutoAnalysis.Marker.Data.StartVar, 
TestParameter, AutoAnalysis.Marker.Data.StartCondition, 
MetaData, TestRecord.EntryPoint, true
MetaData, TestRecord.RecordTime, 10/22/2019 15:01:58
MetaData, TestRecord.TestTarget, .2um-3
MetaData, TestRecord.IterationIndex, 19
MetaData, TestRecord.Preservation, true
MetaData, TestRecord.Flag, 
MetaData, TestRecord.Remarks, 
MetaData, TestRecord.LinkKey, 6ded4107-f14c-404a-b8c6-d793cb9bc6c2
Dimension1, 221, 221, 221, 221, 221, 221, 221, 221
Dimension2, 1, 1, 1, 1, 1, 1, 1, 1
DataName, Vg, Vd, Vs, Id, Is, Ig, AbsId, AbsIs
DataValue, -40, 2, 0, 1.70201E-09, -1.74633E-09, -6.37E-12, 1.70201E-09, 1.74633E-09
DataValue, -39.636, 2, 0, 1.63416E-09, -1.45539E-09, -3.58E-12, 1.63416E-09, 1.45539E-09
DataValue, -39.272, 2, 0, 1.26131E-09, -1.21369E-09, -2.08E-12, 1.26131E-09, 1.21369E-09
DataValue, -38.910000000000004, 2, 0, 1.05875E-09, -1.03963E-09, -9.2E-13, 1.05875E-09, 1.03963E-09
DataValue, -38.546, 2, 0, 9.3659000000000017E-10, -9.5484E-10, -1.6E-13, 9.3659000000000017E-10, 9.5484E-10
DataValue, -38.182, 2, 0, 8.03172E-10, -7.68238E-10, 1E-12, 8.03172E-10, 7.68238E-10
DataValue, -37.818, 2, 0, 8.2250800000000007E-10, -6.92016E-10, 1.92E-12, 8.2250800000000007E-10, 6.92016E-10
DataValue, -37.454, 2, 0, 5.9829700000000007E-10, -5.8950900000000006E-10, 3.02E-12, 5.9829700000000007E-10, 5.8950900000000006E-10
DataValue, -37.09, 2, 0, 5.32238E-10, -6.55602E-10, 4.03E-12, 5.32238E-10, 6.55602E-10
DataValue, -36.728, 2, 0, 5.5989400000000005E-10, -4.6799300000000008E-10, 3.99E-12, 5.5989400000000005E-10, 4.6799300000000008E-10
DataValue, -36.364, 2, 0, 3.8507000000000005E-10, -4.05182E-10, 5.29E-12, 3.8507000000000005E-10, 4.05182E-10
DataValue, -36, 2, 0, 2.8391500000000005E-10, -2.8775800000000003E-10, 8.38E-12, 2.8391500000000005E-10, 2.8775800000000003E-10
DataValue, -35.636, 2, 0, 2.7042000000000003E-10, -2.9823400000000005E-10, 1.116E-11, 2.7042000000000003E-10, 2.9823400000000005E-10
DataValue, -35.272, 2, 0, 2.4762700000000003E-10, -2.3140500000000001E-10, 1.13E-11, 2.4762700000000003E-10, 2.3140500000000001E-10
DataValue, -34.910000000000004, 2, 0, 1.55247E-10, -1.9337900000000003E-10, 1.311E-11, 1.55247E-10, 1.9337900000000003E-10
DataValue, -34.546, 2, 0, 1.5273600000000002E-10, -1.6692E-10, 2.032E-11, 1.5273600000000002E-10, 1.6692E-10
DataValue, -34.182, 2, 0, 1.0539300000000001E-10, -1.07991E-10, 2.151E-11, 1.0539300000000001E-10, 1.07991E-10
DataValue, -33.818, 2, 0, 1.077169E-10, -1.1485200000000001E-10, 9.49E-12, 1.077169E-10, 1.1485200000000001E-10
DataValue, -33.454, 2, 0, 6.34343E-11, -6.73719E-11, 5.06E-12, 6.34343E-11, 6.73719E-11
DataValue, -33.09, 2, 0, 5.1410899999999996E-11, -4.72858E-11, 6.41E-12, 5.1410899999999996E-11, 4.72858E-11
DataValue, -32.728, 2, 0, 3.3128E-11, -3.36424E-11, 5.55E-12, 3.3128E-11, 3.36424E-11
DataValue, -32.364, 2, 0, 2.82605E-11, -2.42211E-11, 4.55E-12, 2.82605E-11, 2.42211E-11
DataValue, -32, 2, 0, 2.10783E-11, -2.08932E-11, 6.28E-12, 2.10783E-11, 2.08932E-11
DataValue, -31.636, 2, 0, 1.86273E-11, -2.0588199999999998E-11, 5.83E-12, 1.86273E-11, 2.0588199999999998E-11
DataValue, -31.272000000000002, 2, 0, 1.9005399999999998E-11, -2.17826E-11, 3.3E-12, 1.9005399999999998E-11, 2.17826E-11
DataValue, -30.91, 2, 0, 2.24356E-11, -2.02104E-11, 2.93E-12, 2.24356E-11, 2.02104E-11
DataValue, -30.546, 2, 0, 1.29069E-11, -1.22397E-11, 3.14E-12, 1.29069E-11, 1.22397E-11
DataValue, -30.182000000000002, 2, 0, 1.3849299999999999E-11, -1.43434E-11, 6.5E-13, 1.3849299999999999E-11, 1.43434E-11
DataValue, -29.818, 2, 0, 6.6012799999999991E-12, -8.6559499999999989E-12, 5E-14, 6.6012799999999991E-12, 8.6559499999999989E-12
DataValue, -29.454, 2, 0, 9.0777999999999991E-12, -9.4699099999999988E-12, 6E-14, 9.0777999999999991E-12, 9.4699099999999988E-12
DataValue, -29.09, 2, 0, 9.2545699999999986E-12, -6.6921499999999995E-12, -2E-14, 9.2545699999999986E-12, 6.6921499999999995E-12
DataValue, -28.728, 2, 0, 5.4272899999999996E-12, -5.9712699999999995E-12, 2.1E-13, 5.4272899999999996E-12, 5.9712699999999995E-12
DataValue, -28.364, 2, 0, 5.8451799999999991E-12, -4.5662399999999993E-12, 2.2E-13, 5.8451799999999991E-12, 4.5662399999999993E-12
DataValue, -28, 2, 0, 4.1100899999999995E-12, -3.61572E-12, 1.6E-13, 4.1100899999999995E-12, 3.61572E-12
DataValue, -27.636, 2, 0, 3.16814E-12, -2.76584E-12, 3.2E-13, 3.16814E-12, 2.76584E-12
DataValue, -27.272000000000002, 2, 0, 2.8802199999999996E-12, -3.24157E-12, 2.8E-13, 2.8802199999999996E-12, 3.24157E-12
DataValue, -26.91, 2, 0, 2.8796499999999998E-12, -1.9776799999999997E-12, 2.3E-13, 2.8796499999999998E-12, 1.9776799999999997E-12
DataValue, -26.546, 2, 0, 1.95718E-12, -1.2941299999999999E-12, 1.8E-13, 1.95718E-12, 1.2941299999999999E-12
DataValue, -26.182000000000002, 2, 0, 1.1695899999999999E-12, -1.30149E-12, 1.9E-13, 1.1695899999999999E-12, 1.30149E-12
DataValue, -25.818, 2, 0, 1.2869999999999999E-12, -1.1304099999999998E-12, 2.8E-13, 1.2869999999999999E-12, 1.1304099999999998E-12
DataValue, -25.454, 2, 0, 1.0111E-12, -8.5372999999999994E-13, 2.9E-13, 1.0111E-12, 8.5372999999999994E-13
DataValue, -25.09, 2, 0, 7.7180999999999992E-13, -1.0383099999999998E-12, 2.5E-13, 7.7180999999999992E-13, 1.0383099999999998E-12
DataValue, -24.728, 2, 0, 8.2792E-13, -6.3983999999999993E-13, 4.1E-13, 8.2792E-13, 6.3983999999999993E-13
DataValue, -24.364, 2, 0, 3.4912E-13, -3.3639E-13, 2E-13, 3.4912E-13, 3.3639E-13
DataValue, -24, 2, 0, 1.9210999999999998E-13, -3.7492999999999995E-13, 4.1E-13, 1.9210999999999998E-13, 3.7492999999999995E-13
DataValue, -23.636, 2, 0, 2.2268999999999998E-13, -2.72E-13, 5.4E-13, 2.2268999999999998E-13, 2.72E-13
DataValue, -23.272000000000002, 2, 0, 1.6088E-13, -1.2712E-13, 2.6E-13, 1.6088E-13, 1.2712E-13
DataValue, -22.91, 2, 0, 4.5459999999999996E-14, -8.882E-14, 7.8E-13, 4.5459999999999996E-14, 8.882E-14
DataValue, -22.546, 2, 0, 3.9399999999999993E-15, -6.4869999999999993E-14, 1.01E-12, 3.9399999999999993E-15, 6.4869999999999993E-14
DataValue, -22.182000000000002, 2, 0, -1.014E-14, -5.445E-14, 1.22E-12, 1.014E-14, 5.445E-14
DataValue, -21.818, 2, 0, -2.1409999999999997E-14, -5.0409999999999997E-14, 1.68E-12, 2.1409999999999997E-14, 5.0409999999999997E-14
DataValue, -21.454, 2, 0, -4.2879999999999996E-14, -5.1429999999999995E-14, 2.1E-12, 4.2879999999999996E-14, 5.1429999999999995E-14
DataValue, -21.09, 2, 0, -5.204E-14, -6.163999999999999E-14, 2.58E-12, 5.204E-14, 6.163999999999999E-14
DataValue, -20.728, 2, 0, -5.1469999999999994E-14, -4.392E-14, 1.74E-12, 5.1469999999999994E-14, 4.392E-14
DataValue, -20.364, 2, 0, -6.609E-14, -5.86E-14, 2.65E-12, 6.609E-14, 5.86E-14
DataValue, -20, 2, 0, -5.975E-14, -5.1369999999999993E-14, 2.32E-12, 5.975E-14, 5.1369999999999993E-14
DataValue, -19.636, 2, 0, -5.2789999999999995E-14, -5.6149999999999993E-14, 2.42E-12, 5.2789999999999995E-14, 5.6149999999999993E-14
DataValue, -19.272000000000002, 2, 0, -6.88E-14, -5.1999999999999993E-14, 1.52E-12, 6.88E-14, 5.1999999999999993E-14
DataValue, -18.91, 2, 0, -6.656E-14, -4.7389999999999994E-14, 2.31E-12, 6.656E-14, 4.7389999999999994E-14
DataValue, -18.546, 2, 0, -5.3379999999999996E-14, -5.3409999999999997E-14, 2.29E-12, 5.3379999999999996E-14, 5.3409999999999997E-14
DataValue, -18.182, 2, 0, -5.3949999999999994E-14, -5.5629999999999992E-14, 2.7E-12, 5.3949999999999994E-14, 5.5629999999999992E-14
DataValue, -17.818, 2, 0, -7.158E-14, -5.2509999999999995E-14, 1.98E-12, 7.158E-14, 5.2509999999999995E-14
DataValue, -17.454, 2, 0, -5.525E-14, -5.4419999999999997E-14, 1.82E-12, 5.525E-14, 5.4419999999999997E-14
DataValue, -17.09, 2, 0, -6.3749999999999993E-14, -5.626E-14, 2.36E-12, 6.3749999999999993E-14, 5.626E-14
DataValue, -16.728, 2, 0, -6.3269999999999992E-14, -5.3069999999999995E-14, 2.2E-12, 6.3269999999999992E-14, 5.3069999999999995E-14
DataValue, -16.364, 2, 0, -6.7529999999999991E-14, -8.139E-14, 3.4599999999999998E-12, 6.7529999999999991E-14, 8.139E-14
DataValue, -16, 2, 0, -8.538999999999999E-14, -6.8029999999999989E-14, 3.52E-12, 8.538999999999999E-14, 6.8029999999999989E-14
DataValue, -15.636000000000001, 2, 0, -8.181E-14, -6.898E-14, 2.6E-12, 8.181E-14, 6.898E-14
DataValue, -15.272, 2, 0, -7.038E-14, -5.863999999999999E-14, 2.68E-12, 7.038E-14, 5.863999999999999E-14
DataValue, -14.91, 2, 0, -6.8119999999999991E-14, -5.651E-14, 1.78E-12, 6.8119999999999991E-14, 5.651E-14
DataValue, -14.546000000000001, 2, 0, -6.292999999999999E-14, -5.933999999999999E-14, 2.3E-12, 6.292999999999999E-14, 5.933999999999999E-14
DataValue, -14.182, 2, 0, -7.3859999999999988E-14, -6.183E-14, 2.5E-12, 7.3859999999999988E-14, 6.183E-14
DataValue, -13.818, 2, 0, -5.616E-14, -5.3829999999999996E-14, 2.45E-12, 5.616E-14, 5.3829999999999996E-14
DataValue, -13.454, 2, 0, -8.103E-14, -6.8679999999999991E-14, 3.52E-12, 8.103E-14, 6.8679999999999991E-14
DataValue, -13.09, 2, 0, -8.543E-14, -8.1129999999999991E-14, 3.78E-12, 8.543E-14, 8.1129999999999991E-14
DataValue, -12.728, 2, 0, -7.1619999999999989E-14, -6.207E-14, 3.52E-12, 7.1619999999999989E-14, 6.207E-14
DataValue, -12.364, 2, 0, -6.1529999999999991E-14, -5.571E-14, 2.34E-12, 6.1529999999999991E-14, 5.571E-14
DataValue, -12, 2, 0, -5.89E-14, -5.6839999999999994E-14, 2.3699999999999998E-12, 5.89E-14, 5.6839999999999994E-14
DataValue, -11.636000000000001, 2, 0, -5.6689999999999996E-14, -5.3029999999999996E-14, 2.1E-12, 5.6689999999999996E-14, 5.3029999999999996E-14
DataValue, -11.272, 2, 0, -6.227E-14, -5.921E-14, 2.1E-12, 6.227E-14, 5.921E-14
DataValue, -10.91, 2, 0, -6.149999999999999E-14, -7.36E-14, 2.3699999999999998E-12, 6.149999999999999E-14, 7.36E-14
DataValue, -10.546, 2, 0, -7.5889999999999993E-14, -6.6599999999999989E-14, 3.16E-12, 7.5889999999999993E-14, 6.6599999999999989E-14
DataValue, -10.182, 2, 0, -6.5589999999999989E-14, -5.5089999999999995E-14, 2.79E-12, 6.5589999999999989E-14, 5.5089999999999995E-14
DataValue, -9.818, 2, 0, -5.4679999999999994E-14, -6.6149999999999988E-14, 2.9E-12, 5.4679999999999994E-14, 6.6149999999999988E-14
DataValue, -9.454, 2, 0, -5.5629999999999992E-14, -6.3009999999999988E-14, 2.28E-12, 5.5629999999999992E-14, 6.3009999999999988E-14
DataValue, -9.09, 2, 0, -6.706E-14, -5.941E-14, 2.4E-12, 6.706E-14, 5.941E-14
DataValue, -8.728, 2, 0, -7.551999999999999E-14, -7.122E-14, 3.06E-12, 7.551999999999999E-14, 7.122E-14
DataValue, -8.364, 2, 0, -6.320999999999999E-14, -5.719E-14, 2.28E-12, 6.320999999999999E-14, 5.719E-14
DataValue, -8, 2, 0, -8.3149999999999992E-14, -8.2189999999999989E-14, 2.17E-12, 8.3149999999999992E-14, 8.2189999999999989E-14
DataValue, -7.636, 2, 0, -7.0279999999999992E-14, -7.94E-14, 2.95E-12, 7.0279999999999992E-14, 7.94E-14
DataValue, -7.272, 2, 0, -5.5759999999999994E-14, -6.637E-14, 2.79E-12, 5.5759999999999994E-14, 6.637E-14
DataValue, -6.91, 2, 0, -4.562E-14, -5.834E-14, 2.24E-12, 4.562E-14, 5.834E-14
DataValue, -6.546, 2, 0, -6.1839999999999992E-14, -7.609E-14, 2.7E-12, 6.1839999999999992E-14, 7.609E-14
DataValue, -6.182, 2, 0, -6.1869999999999993E-14, -7.0419999999999992E-14, 2.57E-12, 6.1869999999999993E-14, 7.0419999999999992E-14
DataValue, -5.8180000000000005, 2, 0, -7.144E-14, -8.112E-14, 1.34E-12, 7.144E-14, 8.112E-14
DataValue, -5.454, 2, 0, -3.4859999999999996E-14, -5.712E-14, 1.92E-12, 3.4859999999999996E-14, 5.712E-14
DataValue, -5.09, 2, 0, -6.017E-14, -7.77E-14, 2.47E-12, 6.017E-14, 7.77E-14
DataValue, -4.728, 2, 0, -4.576E-14, -5.9459999999999994E-14, 2.65E-12, 4.576E-14, 5.9459999999999994E-14
DataValue, -4.364, 2, 0, -5.998E-14, -7.1399999999999991E-14, 2.74E-12, 5.998E-14, 7.1399999999999991E-14
DataValue, -4, 2, 0, -6.2449999999999989E-14, -1.0478999999999999E-13, 3.3E-12, 6.2449999999999989E-14, 1.0478999999999999E-13
DataValue, -3.636, 2, 0, -6.009E-14, -8.423E-14, 2.95E-12, 6.009E-14, 8.423E-14
DataValue, -3.2720000000000002, 2, 0, -7.593999999999999E-14, -7.497E-14, 2.41E-12, 7.593999999999999E-14, 7.497E-14
DataValue, -2.91, 2, 0, -6.0599999999999989E-14, -7.9609999999999988E-14, 2.38E-12, 6.0599999999999989E-14, 7.9609999999999988E-14
DataValue, -2.5460000000000003, 2, 0, -1.2659999999999998E-14, -1.1257999999999999E-13, 4.07E-12, 1.2659999999999998E-14, 1.1257999999999999E-13
DataValue, -2.182, 2, 0, -1.3309999999999999E-14, -9.418E-14, 1.85E-12, 1.3309999999999999E-14, 9.418E-14
DataValue, -1.818, 2, 0, -9.19E-15, -1.2044999999999998E-13, 3.13E-12, 9.19E-15, 1.2044999999999998E-13
DataValue, -1.454, 2, 0, -2.656E-14, -1.0573999999999999E-13, 2.72E-12, 2.656E-14, 1.0573999999999999E-13
DataValue, -1.09, 2, 0, -3.2249999999999995E-14, -8.613E-14, 1.63E-12, 3.2249999999999995E-14, 8.613E-14
DataValue, -0.728, 2, 0, -2.4249999999999998E-14, -8.9619999999999988E-14, 3.06E-12, 2.4249999999999998E-14, 8.9619999999999988E-14
DataValue, -0.364, 2, 0, 1.08E-15, -1.4232999999999999E-13, 2.61E-12, 1.08E-15, 1.4232999999999999E-13
DataValue, 0, 2, 0, -1.486E-14, -1.2430999999999998E-13, 1.76E-12, 1.486E-14, 1.2430999999999998E-13
DataValue, 0.364, 2, 0, 3.869E-14, -1.5329E-13, 2.25E-12, 3.869E-14, 1.5329E-13
DataValue, 0.728, 2, 0, -6.0099999999999994E-15, -1.4015E-13, 2.32E-12, 6.0099999999999994E-15, 1.4015E-13
DataValue, 1.09, 2, 0, 2.567E-14, -1.4347E-13, 3.38E-12, 2.567E-14, 1.4347E-13
DataValue, 1.454, 2, 0, 2.768E-14, -1.615E-13, 2.87E-12, 2.768E-14, 1.615E-13
DataValue, 1.818, 2, 0, 2.7159999999999998E-14, -1.9568999999999997E-13, 2.74E-12, 2.7159999999999998E-14, 1.9568999999999997E-13
DataValue, 2.182, 2, 0, 1.713E-14, -1.6275E-13, 4.13E-12, 1.713E-14, 1.6275E-13
DataValue, 2.5460000000000003, 2, 0, 9.1799999999999985E-15, -1.519E-13, 2.36E-12, 9.1799999999999985E-15, 1.519E-13
DataValue, 2.91, 2, 0, 5.501E-14, -2.0624E-13, 2.44E-12, 5.501E-14, 2.0624E-13
DataValue, 3.2720000000000002, 2, 0, 7.402E-14, -2.2280999999999999E-13, 2.62E-12, 7.402E-14, 2.2280999999999999E-13
DataValue, 3.636, 2, 0, 1.1925E-13, -2.2921999999999996E-13, 2.01E-12, 1.1925E-13, 2.2921999999999996E-13
DataValue, 4, 2, 0, 1.7929999999999998E-13, -3.3536999999999996E-13, 2.38E-12, 1.7929999999999998E-13, 3.3536999999999996E-13
