
SetupTitle, Transfer Curve - Back Gate
PrimitiveTest, I/V Sweep
TestParameter, Context.MainFrame, B1500A
TestParameter, Channel.UnitType, SMU, SMU, SMU
TestParameter, Channel.Unit, SMU1:HR/AS, SMU4:HR/AS, SMU6:MP
TestParameter, Channel.IName, Id, Is, Ig
TestParameter, Channel.VName, Vd, Vs, Vg
TestParameter, Channel.Mode, V, V, V
TestParameter, Channel.Func, CONST, CONST, VAR1
TestParameter, Channel.Index, 
TestParameter, Channel.Time, 
TestParameter, Measurement.Port.Unit, SMU1:HR/AS, SMU4:HR/AS, SMU6:MP
TestParameter, Measurement.Port.SeriesResistor, NONE, NONE, NONE
TestParameter, Measurement.Port.Filter, ON, ON, ON
TestParameter, Measurement.Port.OutputVoltageComparison, 0, 0, 0
TestParameter, Measurement.Primary.Locus, Double
TestParameter, Measurement.Primary.Scale, LINEAR
TestParameter, Measurement.Primary.Start, 2
TestParameter, Measurement.Primary.Stop, -20
TestParameter, Measurement.Primary.Step, -0.1
TestParameter, Measurement.Primary.Compliance, 1E-05
TestParameter, Measurement.Primary.PowerCompliance, 0
TestParameter, Measurement.Aborting.Condition, CONTINUE AT ANY
TestParameter, Measurement.PostOutput.Value, START
TestParameter, Measurement.PostOutput.Retention, OFF
TestParameter, Measurement.Bias.Source, -2, 0, 2
TestParameter, Measurement.Bias.Compliance, 1E-05, 1E-05, 1E-05
TestParameter, Measurement.Monitor.Unit, SMU1:HR/AS, SMU4:HR/AS, SMU6:MP
TestParameter, Measurement.Monitor.Adc, HR ADC, HR ADC, HR ADC
TestParameter, Measurement.Monitor.Measurement, Compliance Side, Compliance Side, Compliance Side
TestParameter, Measurement.Monitor.RangingMode, LIMITED, LIMITED, FIXED
TestParameter, Measurement.Monitor.RangeBoundary, 10pA, 10pA, 10nA
TestParameter, Measurement.Monitor.RangeRating, BY FULL RANGE, BY FULL RANGE, 
TestParameter, Measurement.Monitor.RangeRatingCoeff, 50, 50, 50
TestParameter, Measurement.Timing.Hold, 0.1
TestParameter, Measurement.Timing.Delay, 0
TestParameter, Measurement.Adc.HighSpeed.Mode, AUTO
TestParameter, Measurement.Adc.HighSpeed.Coeff, 1
TestParameter, Measurement.Adc.HighResolution.AutoZero, OFF
TestParameter, Measurement.Adc.HighResolution.Mode, AUTO
TestParameter, Measurement.Adc.HighResolution.Coeff, 127
TestParameter, Measurement.WaitTime.Source.Coeff, 1
TestParameter, Measurement.WaitTime.Source.Offset, 0
TestParameter, Measurement.WaitTime.Monitor.Coeff, 1
TestParameter, Measurement.WaitTime.Monitor.Offset, 0
TestParameter, Function.User.Name, AbsId, AbsIs
TestParameter, Function.User.Unit, A, A
TestParameter, Function.User.Definition, abs(Id), abs(Is)
TestParameter, Output.Graph.Enabled, true
TestParameter, Output.Graph.AutoScaling, false
TestParameter, Output.Graph.XAxis.Data, Vg
TestParameter, Output.Graph.XAxis.Scale, Linear
TestParameter, Output.Graph.XAxis.Left, -10
TestParameter, Output.Graph.XAxis.Right, 10
TestParameter, Output.Graph.XAxis.RunTimeAutoScale, true
TestParameter, Output.Graph.YAxis.Data, AbsId, AbsIs
TestParameter, Output.Graph.YAxis.Scale, Log, Log
TestParameter, Output.Graph.YAxis.Bottom, 0, 0
TestParameter, Output.Graph.YAxis.Top, 1, 1
TestParameter, Output.Graph.YAxis.Group, Group 1, Group 1
TestParameter, Output.Graph.YAxis.RunTimeAutoScale, true, true
TestParameter, Output.List.Data, Vg, Id, Is, Vd, Vs, Ig, AbsId, AbsIs
TestParameter, AutoAnalysis.Interpolation, false
TestParameter, AutoAnalysis.Line1.Enabled, false
TestParameter, AutoAnalysis.Line1.Type, 1
TestParameter, AutoAnalysis.Line1.Fix, True
TestParameter, AutoAnalysis.Line1.YAxis, 0
TestParameter, AutoAnalysis.Line1.Point1.Type, 0
TestParameter, AutoAnalysis.Line1.Point1.XY.X, 
TestParameter, AutoAnalysis.Line1.Point1.XY.Y, 
TestParameter, AutoAnalysis.Line1.Point1.Data.Var, 
TestParameter, AutoAnalysis.Line1.Point1.Data.Condition, 
TestParameter, AutoAnalysis.Line1.Point1.Data.Start, false
TestParameter, AutoAnalysis.Line1.Point1.Data.StartVar, 
TestParameter, AutoAnalysis.Line1.Point1.Data.StartCondition, 
TestParameter, AutoAnalysis.Line1.Point2.Type, 0
TestParameter, AutoAnalysis.Line1.Point2.XY.X, 
TestParameter, AutoAnalysis.Line1.Point2.XY.Y, 
TestParameter, AutoAnalysis.Line1.Point2.Data.Var, 
TestParameter, AutoAnalysis.Line1.Point2.Data.Condition, 
TestParameter, AutoAnalysis.Line1.Point2.Data.Start, false
TestParameter, AutoAnalysis.Line1.Point2.Data.StartVar, 
TestParameter, AutoAnalysis.Line1.Point2.Data.StartCondition, 
TestParameter, AutoAnalysis.Line1.GradientExpr, 0
TestParameter, AutoAnalysis.Line2.Enabled, false
TestParameter, AutoAnalysis.Line2.Type, 1
TestParameter, AutoAnalysis.Line2.Fix, True
TestParameter, AutoAnalysis.Line2.YAxis, 0
TestParameter, AutoAnalysis.Line2.Point1.Type, 0
TestParameter, AutoAnalysis.Line2.Point1.XY.X, 
TestParameter, AutoAnalysis.Line2.Point1.XY.Y, 
TestParameter, AutoAnalysis.Line2.Point1.Data.Var, 
TestParameter, AutoAnalysis.Line2.Point1.Data.Condition, 
TestParameter, AutoAnalysis.Line2.Point1.Data.Start, false
TestParameter, AutoAnalysis.Line2.Point1.Data.StartVar, 
TestParameter, AutoAnalysis.Line2.Point1.Data.StartCondition, 
TestParameter, AutoAnalysis.Line2.Point2.Type, 0
TestParameter, AutoAnalysis.Line2.Point2.XY.X, 
TestParameter, AutoAnalysis.Line2.Point2.XY.Y, 
TestParameter, AutoAnalysis.Line2.Point2.Data.Var, 
TestParameter, AutoAnalysis.Line2.Point2.Data.Condition, 
TestParameter, AutoAnalysis.Line2.Point2.Data.Start, false
TestParameter, AutoAnalysis.Line2.Point2.Data.StartVar, 
TestParameter, AutoAnalysis.Line2.Point2.Data.StartCondition, 
TestParameter, AutoAnalysis.Line2.GradientExpr, 0
TestParameter, AutoAnalysis.Marker.Enabled, false
TestParameter, AutoAnalysis.Marker.Data.Var, 
TestParameter, AutoAnalysis.Marker.Data.Condition, 
TestParameter, AutoAnalysis.Marker.Data.Start, false
TestParameter, AutoAnalysis.Marker.Data.StartVar, 
TestParameter, AutoAnalysis.Marker.Data.StartCondition, 
MetaData, TestRecord.EntryPoint, true
MetaData, TestRecord.RecordTime, 10/22/2019 13:11:54
MetaData, TestRecord.TestTarget, 2um-4
MetaData, TestRecord.IterationIndex, 7
MetaData, TestRecord.Preservation, true
MetaData, TestRecord.Flag, 
MetaData, TestRecord.Remarks, 
MetaData, TestRecord.LinkKey, 41225ef0-3145-4dae-be7e-1943ab7f34bc
Dimension1, 442, 442, 442, 442, 442, 442, 442, 442
Dimension2, 1, 1, 1, 1, 1, 1, 1, 1
DataName, Vg, Vd, Vs, Id, Is, Ig, AbsId, AbsIs
DataValue, 2, -2, 0, -3.039E-14, -2.888E-14, 1.31E-12, 3.039E-14, 2.888E-14
DataValue, 1.9000000000000001, -2, 0, -4.6E-15, -6.8199999999999996E-15, 2.2E-13, 4.6E-15, 6.8199999999999996E-15
DataValue, 1.8, -2, 0, 4.9E-16, -6.0899999999999992E-15, 2.7E-13, 4.9E-16, 6.0899999999999992E-15
DataValue, 1.7, -2, 0, 2.45E-15, -1.5299999999999998E-15, 1E-14, 2.45E-15, 1.5299999999999998E-15
DataValue, 1.6, -2, 0, 6.03E-15, 1.14E-15, -1.5E-13, 6.03E-15, 1.14E-15
DataValue, 1.5, -2, 0, 5.25E-15, 3.0699999999999998E-15, -3.1E-13, 5.25E-15, 3.0699999999999998E-15
DataValue, 1.4000000000000001, -2, 0, 8.8099999999999992E-15, 4.9299999999999993E-15, -3E-13, 8.8099999999999992E-15, 4.9299999999999993E-15
DataValue, 1.3, -2, 0, 1.9509999999999997E-14, 6.2199999999999993E-15, -4.1E-13, 1.9509999999999997E-14, 6.2199999999999993E-15
DataValue, 1.2, -2, 0, 8.339999999999999E-15, 6.2099999999999995E-15, -5.2E-13, 8.339999999999999E-15, 6.2099999999999995E-15
DataValue, 1.1, -2, 0, 1.3039999999999999E-14, 8.4299999999999985E-15, -4.4E-13, 1.3039999999999999E-14, 8.4299999999999985E-15
DataValue, 1, -2, 0, 1.542E-14, 1.3259999999999999E-14, -7E-13, 1.542E-14, 1.3259999999999999E-14
DataValue, 0.9, -2, 0, 2.065E-14, 1.123E-14, -9.4E-13, 2.065E-14, 1.123E-14
DataValue, 0.8, -2, 0, 2.096E-14, 1.2029999999999999E-14, -9.5E-13, 2.096E-14, 1.2029999999999999E-14
DataValue, 0.70000000000000007, -2, 0, 2.147E-14, 1.4219999999999998E-14, -7.3E-13, 2.147E-14, 1.4219999999999998E-14
DataValue, 0.6, -2, 0, 1.8899999999999997E-14, 1.0519999999999999E-14, -6.6E-13, 1.8899999999999997E-14, 1.0519999999999999E-14
DataValue, 0.5, -2, 0, 2.1369999999999998E-14, 1.5899999999999997E-14, -8.7E-13, 2.1369999999999998E-14, 1.5899999999999997E-14
DataValue, 0.4, -2, 0, 1.8599999999999998E-14, 1.3169999999999999E-14, -6.6E-13, 1.8599999999999998E-14, 1.3169999999999999E-14
DataValue, 0.3, -2, 0, 1.709E-14, 1.26E-14, -8.3E-13, 1.709E-14, 1.26E-14
DataValue, 0.2, -2, 0, 2.3829999999999998E-14, 1.577E-14, -8.2E-13, 2.3829999999999998E-14, 1.577E-14
DataValue, 0.1, -2, 0, 1.9979999999999997E-14, 1.295E-14, -8.8E-13, 1.9979999999999997E-14, 1.295E-14
DataValue, 0, -2, 0, 2.4529999999999998E-14, 1.763E-14, -1.07E-12, 2.4529999999999998E-14, 1.763E-14
DataValue, -0.1, -2, 0, 1.629E-14, 1.132E-14, -6.1E-13, 1.629E-14, 1.132E-14
DataValue, -0.2, -2, 0, 1.8299999999999998E-14, 1.1629999999999999E-14, -7.3E-13, 1.8299999999999998E-14, 1.1629999999999999E-14
DataValue, -0.3, -2, 0, 2.0829999999999998E-14, 1.486E-14, -9.5E-13, 2.0829999999999998E-14, 1.486E-14
DataValue, -0.4, -2, 0, 2.4759999999999997E-14, 1.1539999999999999E-14, -7E-13, 2.4759999999999997E-14, 1.1539999999999999E-14
DataValue, -0.5, -2, 0, 2.1549999999999997E-14, 1.749E-14, -7.5E-13, 2.1549999999999997E-14, 1.749E-14
DataValue, -0.6, -2, 0, 2.4039999999999998E-14, 1.7169999999999998E-14, -8.9E-13, 2.4039999999999998E-14, 1.7169999999999998E-14
DataValue, -0.70000000000000007, -2, 0, 1.826E-14, 1.146E-14, -6.6E-13, 1.826E-14, 1.146E-14
DataValue, -0.8, -2, 0, 2.4669999999999997E-14, 1.946E-14, -7.6E-13, 2.4669999999999997E-14, 1.946E-14
DataValue, -0.9, -2, 0, 2.2929999999999997E-14, 1.9509999999999997E-14, -1.27E-12, 2.2929999999999997E-14, 1.9509999999999997E-14
DataValue, -1, -2, 0, 2.0479999999999998E-14, 1.7799999999999997E-14, -1.11E-12, 2.0479999999999998E-14, 1.7799999999999997E-14
DataValue, -1.1, -2, 0, 2.7409999999999997E-14, 2.2069999999999998E-14, -8.5E-13, 2.7409999999999997E-14, 2.2069999999999998E-14
DataValue, -1.2, -2, 0, 2.871E-14, 2.3029999999999998E-14, -1.01E-12, 2.871E-14, 2.3029999999999998E-14
DataValue, -1.3, -2, 0, 2.0169999999999998E-14, 1.561E-14, -7E-13, 2.0169999999999998E-14, 1.561E-14
DataValue, -1.4000000000000001, -2, 0, 1.936E-14, 1.523E-14, -8.6E-13, 1.936E-14, 1.523E-14
DataValue, -1.5, -2, 0, 2.1949999999999997E-14, 1.6419999999999998E-14, -9.7E-13, 2.1949999999999997E-14, 1.6419999999999998E-14
DataValue, -1.6, -2, 0, 2.4689999999999997E-14, 3.0289999999999996E-14, -2.2E-12, 2.4689999999999997E-14, 3.0289999999999996E-14
DataValue, -1.7, -2, 0, 3.983E-14, 2.8549999999999996E-14, -1.49E-12, 3.983E-14, 2.8549999999999996E-14
DataValue, -1.8, -2, 0, 2.885E-14, 3.1789999999999996E-14, -1.7299999999999999E-12, 2.885E-14, 3.1789999999999996E-14
DataValue, -1.9000000000000001, -2, 0, 1.474E-14, 1.856E-14, -6.1E-13, 1.474E-14, 1.856E-14
DataValue, -2, -2, 0, 2.283E-14, 3.2349999999999996E-14, -1.4E-12, 2.283E-14, 3.2349999999999996E-14
DataValue, -2.1, -2, 0, 1.1979999999999998E-14, 1.9469999999999998E-14, -8.1E-13, 1.1979999999999998E-14, 1.9469999999999998E-14
DataValue, -2.2, -2, 0, 1.781E-14, 2.4389999999999998E-14, -1.01E-12, 1.781E-14, 2.4389999999999998E-14
DataValue, -2.3000000000000003, -2, 0, 2.2379999999999998E-14, 2.847E-14, -1.28E-12, 2.2379999999999998E-14, 2.847E-14
DataValue, -2.4, -2, 0, 1.3199999999999998E-14, 2.372E-14, -8.4E-13, 1.3199999999999998E-14, 2.372E-14
DataValue, -2.5, -2, 0, 3.5199999999999996E-15, 2.452E-14, -4.9E-13, 3.5199999999999996E-15, 2.452E-14
DataValue, -2.6, -2, 0, 3.7599999999999996E-15, 3.034E-14, -1.03E-12, 3.7599999999999996E-15, 3.034E-14
DataValue, -2.7, -2, 0, 1.4099999999999998E-15, 4.0659999999999994E-14, -1.06E-12, 1.4099999999999998E-15, 4.0659999999999994E-14
DataValue, -2.8000000000000003, -2, 0, -7.36E-15, 4.5189999999999995E-14, -1.23E-12, 7.36E-15, 4.5189999999999995E-14
DataValue, -2.9, -2, 0, -8.23E-15, 3.8279999999999996E-14, -8E-13, 8.23E-15, 3.8279999999999996E-14
DataValue, -3, -2, 0, 1.3949999999999998E-14, 6.723E-14, -9.1E-13, 1.3949999999999998E-14, 6.723E-14
DataValue, -3.1, -2, 0, -8.72E-15, 5.169E-14, -8.7E-13, 8.72E-15, 5.169E-14
DataValue, -3.2, -2, 0, -1.1499999999999998E-14, 5.0549999999999997E-14, -9E-13, 1.1499999999999998E-14, 5.0549999999999997E-14
DataValue, -3.3000000000000003, -2, 0, -7.2499999999999991E-15, 5.689E-14, -1.09E-12, 7.2499999999999991E-15, 5.689E-14
DataValue, -3.4, -2, 0, -9.14E-15, 6.502E-14, -8.7E-13, 9.14E-15, 6.502E-14
DataValue, -3.5, -2, 0, -2.2929999999999997E-14, 6.771E-14, -8.1E-13, 2.2929999999999997E-14, 6.771E-14
DataValue, -3.6, -2, 0, -5.194E-14, 9.337E-14, -1.04E-12, 5.194E-14, 9.337E-14
DataValue, -3.7, -2, 0, -5.326E-14, 9.6709999999999986E-14, -9.7E-13, 5.326E-14, 9.6709999999999986E-14
DataValue, -3.8000000000000003, -2, 0, -5.5989999999999997E-14, 9.339E-14, -5.7E-13, 5.5989999999999997E-14, 9.339E-14
DataValue, -3.9, -2, 0, -8.3449999999999988E-14, 1.2201E-13, -6.4E-13, 8.3449999999999988E-14, 1.2201E-13
DataValue, -4, -2, 0, -7.632E-14, 1.0535999999999999E-13, -6.7E-13, 7.632E-14, 1.0535999999999999E-13
DataValue, -4.1, -2, 0, -8.0539999999999991E-14, 1.2335E-13, -6.7E-13, 8.0539999999999991E-14, 1.2335E-13
DataValue, -4.2, -2, 0, -8.212E-14, 1.3019E-13, -9.6E-13, 8.212E-14, 1.3019E-13
DataValue, -4.3, -2, 0, -1.0083E-13, 1.2274999999999998E-13, -7.4E-13, 1.0083E-13, 1.2274999999999998E-13
DataValue, -4.4, -2, 0, -1.3816999999999998E-13, 1.8796999999999998E-13, -7.4E-13, 1.3816999999999998E-13, 1.8796999999999998E-13
DataValue, -4.5, -2, 0, -1.3302E-13, 1.8024E-13, -6.3E-13, 1.3302E-13, 1.8024E-13
DataValue, -4.6000000000000005, -2, 0, -1.9237E-13, 2.3753E-13, -6.9E-13, 1.9237E-13, 2.3753E-13
DataValue, -4.7, -2, 0, -2.0810999999999998E-13, 2.3277E-13, -7.1E-13, 2.0810999999999998E-13, 2.3277E-13
DataValue, -4.8, -2, 0, -2.256E-13, 2.5413999999999997E-13, -8E-13, 2.256E-13, 2.5413999999999997E-13
DataValue, -4.9, -2, 0, -2.1848999999999999E-13, 2.2738E-13, -7.5E-13, 2.1848999999999999E-13, 2.2738E-13
DataValue, -5, -2, 0, -2.6860999999999995E-13, 2.9871999999999996E-13, -8.1E-13, 2.6860999999999995E-13, 2.9871999999999996E-13
DataValue, -5.1000000000000005, -2, 0, -2.7203999999999997E-13, 2.9976E-13, -5.6E-13, 2.7203999999999997E-13, 2.9976E-13
DataValue, -5.2, -2, 0, -3.6770999999999995E-13, 3.7952E-13, -1.37E-12, 3.6770999999999995E-13, 3.7952E-13
DataValue, -5.3, -2, 0, -3.4329999999999996E-13, 3.6189999999999995E-13, -6.4E-13, 3.4329999999999996E-13, 3.6189999999999995E-13
DataValue, -5.4, -2, 0, -3.1144999999999995E-13, 3.6796999999999995E-13, -8.1E-13, 3.1144999999999995E-13, 3.6796999999999995E-13
DataValue, -5.5, -2, 0, -3.7228999999999997E-13, 4.1761999999999994E-13, -1.08E-12, 3.7228999999999997E-13, 4.1761999999999994E-13
DataValue, -5.6000000000000005, -2, 0, -4.1549999999999995E-13, 5.7006999999999991E-13, -7.4E-13, 4.1549999999999995E-13, 5.7006999999999991E-13
DataValue, -5.7, -2, 0, -4.6614E-13, 5.0035E-13, -1.05E-12, 4.6614E-13, 5.0035E-13
DataValue, -5.8, -2, 0, -5.1922E-13, 5.1817999999999992E-13, -7.4E-13, 5.1922E-13, 5.1817999999999992E-13
DataValue, -5.9, -2, 0, -5.8396E-13, 6.1932999999999995E-13, -1.01E-12, 5.8396E-13, 6.1932999999999995E-13
DataValue, -6, -2, 0, -5.3426E-13, 5.995499999999999E-13, -1.7E-12, 5.3426E-13, 5.995499999999999E-13
DataValue, -6.1000000000000005, -2, 0, -5.5190999999999992E-13, 6.2824E-13, -7.2E-13, 5.5190999999999992E-13, 6.2824E-13
DataValue, -6.2, -2, 0, -5.6334999999999992E-13, 6.3456E-13, -7.9E-13, 5.6334999999999992E-13, 6.3456E-13
DataValue, -6.3, -2, 0, -5.0981999999999994E-13, 6.0097999999999993E-13, -1.69E-12, 5.0981999999999994E-13, 6.0097999999999993E-13
DataValue, -6.4, -2, 0, -6.4896999999999991E-13, 6.9393E-13, -1.07E-12, 6.4896999999999991E-13, 6.9393E-13
DataValue, -6.5, -2, 0, -7.1626999999999994E-13, 7.5663E-13, -8.6E-13, 7.1626999999999994E-13, 7.5663E-13
DataValue, -6.6000000000000005, -2, 0, -6.4501E-13, 7.3011999999999992E-13, -1.23E-12, 6.4501E-13, 7.3011999999999992E-13
DataValue, -6.7, -2, 0, -8.5058999999999991E-13, 8.7678999999999994E-13, -9.8E-13, 8.5058999999999991E-13, 8.7678999999999994E-13
DataValue, -6.8, -2, 0, -8.2353999999999994E-13, 8.1807999999999988E-13, -6.8E-13, 8.2353999999999994E-13, 8.1807999999999988E-13
DataValue, -6.9, -2, 0, -8.3736E-13, 9.0746E-13, -5.7E-13, 8.3736E-13, 9.0746E-13
DataValue, -7, -2, 0, -9.6315E-13, 9.7611E-13, -1.64E-12, 9.6315E-13, 9.7611E-13
DataValue, -7.1000000000000005, -2, 0, -8.9803999999999988E-13, 9.993E-13, -6.4E-13, 8.9803999999999988E-13, 9.993E-13
DataValue, -7.2, -2, 0, -1.0211099999999999E-12, 1.01469E-12, -1.74E-12, 1.0211099999999999E-12, 1.01469E-12
DataValue, -7.3, -2, 0, -1.1533299999999999E-12, 1.1144599999999999E-12, -8.4E-13, 1.1533299999999999E-12, 1.1144599999999999E-12
DataValue, -7.4, -2, 0, -1.2560299999999999E-12, 1.20458E-12, -9.5E-13, 1.2560299999999999E-12, 1.20458E-12
DataValue, -7.5, -2, 0, -1.20323E-12, 1.2847E-12, -1.06E-12, 1.20323E-12, 1.2847E-12
DataValue, -7.6000000000000005, -2, 0, -1.4523399999999999E-12, 1.4589599999999999E-12, -7.1E-13, 1.4523399999999999E-12, 1.4589599999999999E-12
DataValue, -7.7, -2, 0, -1.2675699999999998E-12, 1.2697299999999999E-12, -1.12E-12, 1.2675699999999998E-12, 1.2697299999999999E-12
DataValue, -7.8, -2, 0, -1.2794699999999998E-12, 1.3779499999999998E-12, -6E-13, 1.2794699999999998E-12, 1.3779499999999998E-12
DataValue, -7.9, -2, 0, -1.6917899999999998E-12, 1.7333499999999999E-12, -7.6E-13, 1.6917899999999998E-12, 1.7333499999999999E-12
DataValue, -8, -2, 0, -1.9164899999999996E-12, 1.8782599999999997E-12, -5.9E-13, 1.9164899999999996E-12, 1.8782599999999997E-12
DataValue, -8.1, -2, 0, -1.91218E-12, 1.85147E-12, -8.8E-13, 1.91218E-12, 1.85147E-12
DataValue, -8.2, -2, 0, -1.91743E-12, 1.99019E-12, -9.7E-13, 1.91743E-12, 1.99019E-12
DataValue, -8.3, -2, 0, -2.29488E-12, 2.3348699999999997E-12, -7.3E-13, 2.29488E-12, 2.3348699999999997E-12
DataValue, -8.4, -2, 0, -2.3458E-12, 2.31597E-12, -7.4E-13, 2.3458E-12, 2.31597E-12
DataValue, -8.5, -2, 0, -2.1737E-12, 2.3398999999999998E-12, -9.4E-13, 2.1737E-12, 2.3398999999999998E-12
DataValue, -8.6, -2, 0, -2.4527499999999996E-12, 2.45038E-12, -8.8E-13, 2.4527499999999996E-12, 2.45038E-12
DataValue, -8.7000000000000011, -2, 0, -2.4661999999999997E-12, 2.52696E-12, -1.18E-12, 2.4661999999999997E-12, 2.52696E-12
DataValue, -8.8, -2, 0, -2.56296E-12, 2.57877E-12, -1.23E-12, 2.56296E-12, 2.57877E-12
DataValue, -8.9, -2, 0, -2.4030999999999997E-12, 2.5473199999999997E-12, -1.08E-12, 2.4030999999999997E-12, 2.5473199999999997E-12
DataValue, -9, -2, 0, -2.69423E-12, 2.52703E-12, -7.6E-13, 2.69423E-12, 2.52703E-12
DataValue, -9.1, -2, 0, -2.52634E-12, 2.7469E-12, -7.6E-13, 2.52634E-12, 2.7469E-12
DataValue, -9.2000000000000011, -2, 0, -2.7532799999999998E-12, 3.11455E-12, -6.9E-13, 2.7532799999999998E-12, 3.11455E-12
DataValue, -9.3, -2, 0, -3.1537299999999997E-12, 3.1695699999999998E-12, -9.7E-13, 3.1537299999999997E-12, 3.1695699999999998E-12
DataValue, -9.4, -2, 0, -3.3285799999999995E-12, 3.3190399999999996E-12, -1.16E-12, 3.3285799999999995E-12, 3.3190399999999996E-12
DataValue, -9.5, -2, 0, -3.83165E-12, 3.813E-12, -1.79E-12, 3.83165E-12, 3.813E-12
DataValue, -9.6, -2, 0, -3.8685599999999994E-12, 3.97775E-12, -1.05E-12, 3.8685599999999994E-12, 3.97775E-12
DataValue, -9.7000000000000011, -2, 0, -3.8723799999999993E-12, 3.87354E-12, -9.3E-13, 3.8723799999999993E-12, 3.87354E-12
DataValue, -9.8, -2, 0, -4.3873699999999993E-12, 3.98433E-12, -9.9E-13, 4.3873699999999993E-12, 3.98433E-12
DataValue, -9.9, -2, 0, -4.05574E-12, 3.8779E-12, -1.12E-12, 4.05574E-12, 3.8779E-12
DataValue, -10, -2, 0, -4.7710499999999995E-12, 4.8024499999999996E-12, -8.8E-13, 4.7710499999999995E-12, 4.8024499999999996E-12
DataValue, -10.1, -2, 0, -4.9780299999999995E-12, 4.8612499999999993E-12, -1.1E-12, 4.9780299999999995E-12, 4.8612499999999993E-12
