
SetupTitle, Transfer Curve - Back Gate
PrimitiveTest, I/V Sweep
TestParameter, Context.MainFrame, B1500A
TestParameter, Channel.UnitType, SMU, SMU, SMU
TestParameter, Channel.Unit, SMU1:HR/AS, SMU4:HR/AS, SMU6:MP
TestParameter, Channel.IName, Id, Is, Ig
TestParameter, Channel.VName, Vd, Vs, Vg
TestParameter, Channel.Mode, V, V, V
TestParameter, Channel.Func, CONST, CONST, VAR1
TestParameter, Channel.Index, 
TestParameter, Channel.Time, 
TestParameter, Measurement.Port.Unit, SMU1:HR/AS, SMU4:HR/AS, SMU6:MP
TestParameter, Measurement.Port.SeriesResistor, NONE, NONE, NONE
TestParameter, Measurement.Port.Filter, ON, ON, ON
TestParameter, Measurement.Port.OutputVoltageComparison, 0, 0, 0
TestParameter, Measurement.Primary.Locus, Single
TestParameter, Measurement.Primary.Scale, LINEAR
TestParameter, Measurement.Primary.Start, 40
TestParameter, Measurement.Primary.Stop, -40
TestParameter, Measurement.Primary.Step, -0.1
TestParameter, Measurement.Primary.Compliance, 1E-05
TestParameter, Measurement.Primary.PowerCompliance, 0
TestParameter, Measurement.Aborting.Condition, CONTINUE AT ANY
TestParameter, Measurement.PostOutput.Value, START
TestParameter, Measurement.PostOutput.Retention, OFF
TestParameter, Measurement.Bias.Source, 2, 0, 40
TestParameter, Measurement.Bias.Compliance, 1E-05, 1E-05, 1E-05
TestParameter, Measurement.Monitor.Unit, SMU1:HR/AS, SMU4:HR/AS, SMU6:MP
TestParameter, Measurement.Monitor.Adc, HR ADC, HR ADC, HR ADC
TestParameter, Measurement.Monitor.Measurement, Compliance Side, Compliance Side, Compliance Side
TestParameter, Measurement.Monitor.RangingMode, AUTO, AUTO, FIXED
TestParameter, Measurement.Monitor.RangeBoundary, , , 10nA
TestParameter, Measurement.Monitor.RangeRating, BY FULL RANGE, BY FULL RANGE, 
TestParameter, Measurement.Monitor.RangeRatingCoeff, 50, 50, 50
TestParameter, Measurement.Timing.Hold, 2
TestParameter, Measurement.Timing.Delay, 0
TestParameter, Measurement.Adc.HighSpeed.Mode, AUTO
TestParameter, Measurement.Adc.HighSpeed.Coeff, 1
TestParameter, Measurement.Adc.HighResolution.AutoZero, OFF
TestParameter, Measurement.Adc.HighResolution.Mode, AUTO
TestParameter, Measurement.Adc.HighResolution.Coeff, 127
TestParameter, Measurement.WaitTime.Source.Coeff, 1
TestParameter, Measurement.WaitTime.Source.Offset, 0
TestParameter, Measurement.WaitTime.Monitor.Coeff, 1
TestParameter, Measurement.WaitTime.Monitor.Offset, 0
TestParameter, Function.User.Name, AbsId, AbsIs
TestParameter, Function.User.Unit, A, A
TestParameter, Function.User.Definition, abs(Id), abs(Is)
TestParameter, Output.Graph.Enabled, true
TestParameter, Output.Graph.AutoScaling, false
TestParameter, Output.Graph.XAxis.Data, Vg
TestParameter, Output.Graph.XAxis.Scale, Linear
TestParameter, Output.Graph.XAxis.Left, -10
TestParameter, Output.Graph.XAxis.Right, 10
TestParameter, Output.Graph.XAxis.RunTimeAutoScale, true
TestParameter, Output.Graph.YAxis.Data, AbsId, AbsIs
TestParameter, Output.Graph.YAxis.Scale, Log, Log
TestParameter, Output.Graph.YAxis.Bottom, 0, 0
TestParameter, Output.Graph.YAxis.Top, 1, 1
TestParameter, Output.Graph.YAxis.Group, Group 1, Group 1
TestParameter, Output.Graph.YAxis.RunTimeAutoScale, true, true
TestParameter, Output.List.Data, Vg, Id, Is, Vd, Vs, Ig, AbsId, AbsIs
TestParameter, AutoAnalysis.Interpolation, false
TestParameter, AutoAnalysis.Line1.Enabled, false
TestParameter, AutoAnalysis.Line1.Type, 1
TestParameter, AutoAnalysis.Line1.Fix, True
TestParameter, AutoAnalysis.Line1.YAxis, 0
TestParameter, AutoAnalysis.Line1.Point1.Type, 0
TestParameter, AutoAnalysis.Line1.Point1.XY.X, 
TestParameter, AutoAnalysis.Line1.Point1.XY.Y, 
TestParameter, AutoAnalysis.Line1.Point1.Data.Var, 
TestParameter, AutoAnalysis.Line1.Point1.Data.Condition, 
TestParameter, AutoAnalysis.Line1.Point1.Data.Start, false
TestParameter, AutoAnalysis.Line1.Point1.Data.StartVar, 
TestParameter, AutoAnalysis.Line1.Point1.Data.StartCondition, 
TestParameter, AutoAnalysis.Line1.Point2.Type, 0
TestParameter, AutoAnalysis.Line1.Point2.XY.X, 
TestParameter, AutoAnalysis.Line1.Point2.XY.Y, 
TestParameter, AutoAnalysis.Line1.Point2.Data.Var, 
TestParameter, AutoAnalysis.Line1.Point2.Data.Condition, 
TestParameter, AutoAnalysis.Line1.Point2.Data.Start, false
TestParameter, AutoAnalysis.Line1.Point2.Data.StartVar, 
TestParameter, AutoAnalysis.Line1.Point2.Data.StartCondition, 
TestParameter, AutoAnalysis.Line1.GradientExpr, 0
TestParameter, AutoAnalysis.Line2.Enabled, false
TestParameter, AutoAnalysis.Line2.Type, 1
TestParameter, AutoAnalysis.Line2.Fix, True
TestParameter, AutoAnalysis.Line2.YAxis, 0
TestParameter, AutoAnalysis.Line2.Point1.Type, 0
TestParameter, AutoAnalysis.Line2.Point1.XY.X, 
TestParameter, AutoAnalysis.Line2.Point1.XY.Y, 
TestParameter, AutoAnalysis.Line2.Point1.Data.Var, 
TestParameter, AutoAnalysis.Line2.Point1.Data.Condition, 
TestParameter, AutoAnalysis.Line2.Point1.Data.Start, false
TestParameter, AutoAnalysis.Line2.Point1.Data.StartVar, 
TestParameter, AutoAnalysis.Line2.Point1.Data.StartCondition, 
TestParameter, AutoAnalysis.Line2.Point2.Type, 0
TestParameter, AutoAnalysis.Line2.Point2.XY.X, 
TestParameter, AutoAnalysis.Line2.Point2.XY.Y, 
TestParameter, AutoAnalysis.Line2.Point2.Data.Var, 
TestParameter, AutoAnalysis.Line2.Point2.Data.Condition, 
TestParameter, AutoAnalysis.Line2.Point2.Data.Start, false
TestParameter, AutoAnalysis.Line2.Point2.Data.StartVar, 
TestParameter, AutoAnalysis.Line2.Point2.Data.StartCondition, 
TestParameter, AutoAnalysis.Line2.GradientExpr, 0
TestParameter, AutoAnalysis.Marker.Enabled, false
TestParameter, AutoAnalysis.Marker.Data.Var, 
TestParameter, AutoAnalysis.Marker.Data.Condition, 
TestParameter, AutoAnalysis.Marker.Data.Start, false
TestParameter, AutoAnalysis.Marker.Data.StartVar, 
TestParameter, AutoAnalysis.Marker.Data.StartCondition, 
MetaData, TestRecord.EntryPoint, true
MetaData, TestRecord.RecordTime, 10/22/2019 15:17:11
MetaData, TestRecord.TestTarget, .2um-3
MetaData, TestRecord.IterationIndex, 20
MetaData, TestRecord.Preservation, true
MetaData, TestRecord.Flag, 
MetaData, TestRecord.Remarks, 
MetaData, TestRecord.LinkKey, f94607ba-df0e-4665-88c0-7c35ca9558d0
Dimension1, 801, 801, 801, 801, 801, 801, 801, 801
Dimension2, 1, 1, 1, 1, 1, 1, 1, 1
DataName, Vg, Vd, Vs, Id, Is, Ig, AbsId, AbsIs
DataValue, 40, 2, 0, 5.2171300000000008E-10, -6.1523400000000009E-10, 8.89E-12, 5.2171300000000008E-10, 6.1523400000000009E-10
DataValue, 39.9, 2, 0, 4.66656E-10, -4.3393200000000004E-10, 5.9E-12, 4.66656E-10, 4.3393200000000004E-10
DataValue, 39.800000000000004, 2, 0, 4.1479300000000005E-10, -4.35401E-10, 4.41E-12, 4.1479300000000005E-10, 4.35401E-10
DataValue, 39.7, 2, 0, 4.1578200000000005E-10, -4.1030100000000003E-10, 5.76E-12, 4.1578200000000005E-10, 4.1030100000000003E-10
DataValue, 39.6, 2, 0, 2.90876E-10, -3.21438E-10, 4.54E-12, 2.90876E-10, 3.21438E-10
DataValue, 39.5, 2, 0, 3.32456E-10, -3.12446E-10, 2.95E-12, 3.32456E-10, 3.12446E-10
DataValue, 39.4, 2, 0, 2.8851100000000003E-10, -3.13162E-10, 2.87E-12, 2.8851100000000003E-10, 3.13162E-10
DataValue, 39.300000000000004, 2, 0, 2.9381600000000004E-10, -3.1388E-10, 2.83E-12, 2.9381600000000004E-10, 3.1388E-10
DataValue, 39.2, 2, 0, 3.2191800000000005E-10, -2.9380800000000003E-10, 2.08E-12, 3.2191800000000005E-10, 2.9380800000000003E-10
DataValue, 39.1, 2, 0, 2.5707200000000004E-10, -2.38339E-10, 2.25E-12, 2.5707200000000004E-10, 2.38339E-10
DataValue, 39, 2, 0, 2.4485000000000004E-10, -2.41537E-10, 2.28E-12, 2.4485000000000004E-10, 2.41537E-10
DataValue, 38.9, 2, 0, 2.01615E-10, -2.2440100000000003E-10, 2.06E-12, 2.01615E-10, 2.2440100000000003E-10
DataValue, 38.800000000000004, 2, 0, 2.10607E-10, -2.1992200000000002E-10, 2.62E-12, 2.10607E-10, 2.1992200000000002E-10
DataValue, 38.7, 2, 0, 1.8565300000000003E-10, -1.9224800000000002E-10, 1.32E-12, 1.8565300000000003E-10, 1.9224800000000002E-10
DataValue, 38.6, 2, 0, 1.7185200000000002E-10, -1.6276300000000002E-10, 1E-12, 1.7185200000000002E-10, 1.6276300000000002E-10
DataValue, 38.5, 2, 0, 1.59409E-10, -1.5232300000000002E-10, 9.3E-13, 1.59409E-10, 1.5232300000000002E-10
DataValue, 38.4, 2, 0, 1.57175E-10, -1.43962E-10, 7.9E-13, 1.57175E-10, 1.43962E-10
DataValue, 38.300000000000004, 2, 0, 1.5806900000000002E-10, -1.6062100000000002E-10, 8E-13, 1.5806900000000002E-10, 1.6062100000000002E-10
DataValue, 38.2, 2, 0, 1.48509E-10, -1.4895100000000002E-10, 4E-13, 1.48509E-10, 1.4895100000000002E-10
DataValue, 38.1, 2, 0, 1.28196E-10, -1.28589E-10, 1.6E-13, 1.28196E-10, 1.28589E-10
DataValue, 38, 2, 0, 1.2894500000000001E-10, -1.3078400000000002E-10, -1E-14, 1.2894500000000001E-10, 1.3078400000000002E-10
DataValue, 37.9, 2, 0, 1.20509E-10, -1.23517E-10, -9E-14, 1.20509E-10, 1.23517E-10
DataValue, 37.800000000000004, 2, 0, 1.1095400000000001E-10, -1.18328E-10, -2.4E-13, 1.1095400000000001E-10, 1.18328E-10
DataValue, 37.7, 2, 0, 1.05418E-10, -9.9057E-11, -4.6E-13, 1.05418E-10, 9.9057E-11
DataValue, 37.6, 2, 0, 9.63008E-11, -7.67874E-11, -4.5E-13, 9.63008E-11, 7.67874E-11
DataValue, 37.5, 2, 0, 8.8122199999999992E-11, -9.20778E-11, -6.4E-13, 8.8122199999999992E-11, 9.20778E-11
DataValue, 37.4, 2, 0, 8.64782E-11, -9.45062E-11, -5.9E-13, 8.64782E-11, 9.45062E-11
DataValue, 37.300000000000004, 2, 0, 8.52313E-11, -8.3164E-11, -7E-13, 8.52313E-11, 8.3164E-11
DataValue, 37.2, 2, 0, 8.23789E-11, -4.9641E-11, -8.2E-13, 8.23789E-11, 4.9641E-11
DataValue, 37.1, 2, 0, 4.65885E-11, -4.5913699999999997E-11, -8E-13, 4.65885E-11, 4.5913699999999997E-11
DataValue, 37, 2, 0, 4.07521E-11, -4.43156E-11, -8.2E-13, 4.07521E-11, 4.43156E-11
DataValue, 36.9, 2, 0, 4.46464E-11, -3.62335E-11, -7.7E-13, 4.46464E-11, 3.62335E-11
DataValue, 36.800000000000004, 2, 0, 4.23828E-11, -4.24931E-11, -9.4E-13, 4.23828E-11, 4.24931E-11
DataValue, 36.7, 2, 0, 4.06301E-11, -3.42717E-11, -8.9E-13, 4.06301E-11, 3.42717E-11
DataValue, 36.6, 2, 0, 3.58603E-11, -3.65104E-11, -1.14E-12, 3.58603E-11, 3.65104E-11
DataValue, 36.5, 2, 0, 3.30416E-11, -3.8590599999999997E-11, -1.21E-12, 3.30416E-11, 3.8590599999999997E-11
DataValue, 36.4, 2, 0, 3.13411E-11, -3.13379E-11, -1.04E-12, 3.13411E-11, 3.13379E-11
DataValue, 36.300000000000004, 2, 0, 2.92769E-11, -2.72951E-11, -1.25E-12, 2.92769E-11, 2.72951E-11
DataValue, 36.2, 2, 0, 2.7992299999999998E-11, -2.65652E-11, -1.21E-12, 2.7992299999999998E-11, 2.65652E-11
DataValue, 36.1, 2, 0, 4.62062E-11, -4.10692E-11, -1.35E-12, 4.62062E-11, 4.10692E-11
DataValue, 36, 2, 0, 4.22819E-11, -3.86492E-11, -1.55E-12, 4.22819E-11, 3.86492E-11
DataValue, 35.9, 2, 0, 3.83418E-11, -3.88402E-11, -1.29E-12, 3.83418E-11, 3.88402E-11
DataValue, 35.800000000000004, 2, 0, 3.87769E-11, -4.39308E-11, -1.17E-12, 3.87769E-11, 4.39308E-11
DataValue, 35.7, 2, 0, 3.47547E-11, -3.65672E-11, -1.12E-12, 3.47547E-11, 3.65672E-11
DataValue, 35.6, 2, 0, 3.36238E-11, -2.5938199999999998E-11, -1.11E-12, 3.36238E-11, 2.5938199999999998E-11
DataValue, 35.5, 2, 0, 2.29024E-11, -3.7192999999999996E-11, -1.19E-12, 2.29024E-11, 3.7192999999999996E-11
DataValue, 35.4, 2, 0, 3.44088E-11, -3.49885E-11, -1.35E-12, 3.44088E-11, 3.49885E-11
DataValue, 35.300000000000004, 2, 0, 3.09336E-11, -3.28371E-11, -9E-13, 3.09336E-11, 3.28371E-11
DataValue, 35.2, 2, 0, 3.28838E-11, -2.91507E-11, -1.27E-12, 3.28838E-11, 2.91507E-11
DataValue, 35.1, 2, 0, 3.01016E-11, -2.67654E-11, -1.18E-12, 3.01016E-11, 2.67654E-11
DataValue, 35, 2, 0, 2.61332E-11, -1.70965E-11, -1.51E-12, 2.61332E-11, 1.70965E-11
DataValue, 34.9, 2, 0, 1.41107E-11, -1.5143099999999998E-11, -1.3E-12, 1.41107E-11, 1.5143099999999998E-11
DataValue, 34.800000000000004, 2, 0, 1.4392399999999999E-11, -1.16832E-11, -4.8E-13, 1.4392399999999999E-11, 1.16832E-11
DataValue, 34.7, 2, 0, 1.1774E-11, -1.104E-11, -5E-13, 1.1774E-11, 1.104E-11
DataValue, 34.6, 2, 0, 9.7981E-12, -7.72713E-12, -3.2E-13, 9.7981E-12, 7.72713E-12
DataValue, 34.5, 2, 0, 1.08318E-11, -1.081852E-11, -4.7E-13, 1.08318E-11, 1.081852E-11
DataValue, 34.4, 2, 0, 9.6784E-12, -9.5982999999999988E-12, -5E-13, 9.6784E-12, 9.5982999999999988E-12
DataValue, 34.300000000000004, 2, 0, 7.6161099999999987E-12, -7.9153E-12, -2.8E-13, 7.6161099999999987E-12, 7.9153E-12
DataValue, 34.2, 2, 0, 7.6191499999999991E-12, -7.48829E-12, -3.4E-13, 7.6191499999999991E-12, 7.48829E-12
DataValue, 34.1, 2, 0, 6.5740799999999994E-12, -5.99962E-12, -5.3E-13, 6.5740799999999994E-12, 5.99962E-12
DataValue, 34, 2, 0, 4.60487E-12, -4.8468199999999993E-12, -4.8E-13, 4.60487E-12, 4.8468199999999993E-12
DataValue, 33.9, 2, 0, 6.13887E-12, -6.5882899999999992E-12, -6.4E-13, 6.13887E-12, 6.5882899999999992E-12
DataValue, 33.8, 2, 0, 5.15643E-12, -5.20123E-12, -5.8E-13, 5.15643E-12, 5.20123E-12
DataValue, 33.7, 2, 0, 4.49315E-12, -4.37223E-12, -8E-13, 4.49315E-12, 4.37223E-12
DataValue, 33.6, 2, 0, 5.0481299999999994E-12, -4.3386899999999996E-12, -7.7E-13, 5.0481299999999994E-12, 4.3386899999999996E-12
DataValue, 33.5, 2, 0, 4.83599E-12, -4.729E-12, -7.2E-13, 4.83599E-12, 4.729E-12
DataValue, 33.4, 2, 0, 4.3122799999999995E-12, -4.5377199999999994E-12, -8.3E-13, 4.3122799999999995E-12, 4.5377199999999994E-12
DataValue, 33.3, 2, 0, 4.9187199999999995E-12, -5.61842E-12, -8.4E-13, 4.9187199999999995E-12, 5.61842E-12
DataValue, 33.2, 2, 0, 4.9366299999999993E-12, -4.91006E-12, -1.15E-12, 4.9366299999999993E-12, 4.91006E-12
DataValue, 33.1, 2, 0, 5.03901E-12, -5.8097499999999992E-12, -8.4E-13, 5.03901E-12, 5.8097499999999992E-12
DataValue, 33, 2, 0, 4.08192E-12, -3.9481799999999994E-12, -8.3E-13, 4.08192E-12, 3.9481799999999994E-12
DataValue, 32.9, 2, 0, 3.73371E-12, -3.7160899999999994E-12, -9E-13, 3.73371E-12, 3.7160899999999994E-12
DataValue, 32.8, 2, 0, 4.0053599999999994E-12, -3.6250299999999995E-12, -9.8E-13, 4.0053599999999994E-12, 3.6250299999999995E-12
DataValue, 32.7, 2, 0, 2.79467E-12, -2.9323399999999996E-12, -8.1E-13, 2.79467E-12, 2.9323399999999996E-12
DataValue, 32.6, 2, 0, 2.9010799999999996E-12, -2.7106299999999997E-12, -8.4E-13, 2.9010799999999996E-12, 2.7106299999999997E-12
DataValue, 32.5, 2, 0, 2.4520799999999998E-12, -2.77463E-12, -8.3E-13, 2.4520799999999998E-12, 2.77463E-12
DataValue, 32.4, 2, 0, 2.18947E-12, -2.2197799999999997E-12, -9E-13, 2.18947E-12, 2.2197799999999997E-12
DataValue, 32.3, 2, 0, 2.0389999999999997E-12, -1.8371199999999997E-12, -1.06E-12, 2.0389999999999997E-12, 1.8371199999999997E-12
DataValue, 32.2, 2, 0, 1.4704999999999998E-12, -1.41264E-12, -1.01E-12, 1.4704999999999998E-12, 1.41264E-12
DataValue, 32.1, 2, 0, 1.4033299999999998E-12, -1.2809599999999998E-12, -9.7E-13, 1.4033299999999998E-12, 1.2809599999999998E-12
DataValue, 32, 2, 0, 9.1906999999999984E-13, -8.5632999999999995E-13, -7.5E-13, 9.1906999999999984E-13, 8.5632999999999995E-13
DataValue, 31.900000000000002, 2, 0, 7.6217E-13, -7.9649E-13, -8.9E-13, 7.6217E-13, 7.9649E-13
DataValue, 31.8, 2, 0, 6.8833E-13, -7.0081999999999994E-13, -8E-13, 6.8833E-13, 7.0081999999999994E-13
DataValue, 31.7, 2, 0, 6.0776999999999994E-13, -5.8368E-13, -1.05E-12, 6.0776999999999994E-13, 5.8368E-13
DataValue, 31.6, 2, 0, 6.2105E-13, -7.0892E-13, -7.6E-13, 6.2105E-13, 7.0892E-13
DataValue, 31.5, 2, 0, 6.0802E-13, -5.3295E-13, -1.12E-12, 6.0802E-13, 5.3295E-13
DataValue, 31.400000000000002, 2, 0, 5.4747E-13, -5.4767999999999994E-13, -9.9E-13, 5.4747E-13, 5.4767999999999994E-13
DataValue, 31.3, 2, 0, 4.8725E-13, -4.4336999999999996E-13, -7.1E-13, 4.8725E-13, 4.4336999999999996E-13
DataValue, 31.2, 2, 0, 3.733E-13, -3.6319E-13, -8.8E-13, 3.733E-13, 3.6319E-13
DataValue, 31.1, 2, 0, 3.7778999999999995E-13, -3.2766999999999996E-13, -8E-13, 3.7778999999999995E-13, 3.2766999999999996E-13
DataValue, 31, 2, 0, 2.9234E-13, -3.0658999999999996E-13, -9.5E-13, 2.9234E-13, 3.0658999999999996E-13
DataValue, 30.900000000000002, 2, 0, 3.0772E-13, -2.7707E-13, -8.5E-13, 3.0772E-13, 2.7707E-13
DataValue, 30.8, 2, 0, 2.8255E-13, -2.4139E-13, -9.8E-13, 2.8255E-13, 2.4139E-13
DataValue, 30.7, 2, 0, 2.4325E-13, -1.6999999999999998E-13, -7.6E-13, 2.4325E-13, 1.6999999999999998E-13
DataValue, 30.6, 2, 0, 2.2998E-13, -1.9010999999999999E-13, -9.8E-13, 2.2998E-13, 1.9010999999999999E-13
DataValue, 30.5, 2, 0, 1.9598E-13, -1.9877E-13, -9.1E-13, 1.9598E-13, 1.9877E-13
DataValue, 30.400000000000002, 2, 0, 2.1206999999999997E-13, -1.6754999999999998E-13, -1.43E-12, 2.1206999999999997E-13, 1.6754999999999998E-13
DataValue, 30.3, 2, 0, 1.8009E-13, -1.3464E-13, -1.29E-12, 1.8009E-13, 1.3464E-13
DataValue, 30.2, 2, 0, 1.6915E-13, -1.2423E-13, -1.02E-12, 1.6915E-13, 1.2423E-13
DataValue, 30.1, 2, 0, 1.4693999999999998E-13, -1.1679E-13, -1.03E-12, 1.4693999999999998E-13, 1.1679E-13
DataValue, 30, 2, 0, 1.3909E-13, -1.1661999999999999E-13, -8.9E-13, 1.3909E-13, 1.1661999999999999E-13
DataValue, 29.900000000000002, 2, 0, 1.1785E-13, -9.2869999999999987E-14, -9.6E-13, 1.1785E-13, 9.2869999999999987E-14
DataValue, 29.8, 2, 0, 1.1814999999999998E-13, -7.9159999999999988E-14, -1.06E-12, 1.1814999999999998E-13, 7.9159999999999988E-14
DataValue, 29.7, 2, 0, 1.1857E-13, -7.792999999999999E-14, -9.1E-13, 1.1857E-13, 7.792999999999999E-14
DataValue, 29.6, 2, 0, 1.1534E-13, -7.2769999999999989E-14, -9E-13, 1.1534E-13, 7.2769999999999989E-14
DataValue, 29.5, 2, 0, 1.0924999999999999E-13, -6.2399999999999992E-14, -1.01E-12, 1.0924999999999999E-13, 6.2399999999999992E-14
DataValue, 29.400000000000002, 2, 0, 1.1391E-13, -7.57E-14, -9.9E-13, 1.1391E-13, 7.57E-14
DataValue, 29.3, 2, 0, 8.613E-14, -4.3959999999999996E-14, -1E-12, 8.613E-14, 4.3959999999999996E-14
DataValue, 29.2, 2, 0, 9.0079999999999993E-14, -4.65E-14, -1.06E-12, 9.0079999999999993E-14, 4.65E-14
DataValue, 29.1, 2, 0, 8.03E-14, -3.055E-14, -1.11E-12, 8.03E-14, 3.055E-14
DataValue, 29, 2, 0, 7.8709999999999987E-14, -2.5539999999999998E-14, -1.27E-12, 7.8709999999999987E-14, 2.5539999999999998E-14
DataValue, 28.900000000000002, 2, 0, 6.783E-14, -2.7919999999999996E-14, -9.8E-13, 6.783E-14, 2.7919999999999996E-14
DataValue, 28.8, 2, 0, 7.032E-14, -3.6009999999999996E-14, -1E-12, 7.032E-14, 3.6009999999999996E-14
DataValue, 28.7, 2, 0, 8.011E-14, -2.4249999999999998E-14, -1.14E-12, 8.011E-14, 2.4249999999999998E-14
DataValue, 28.6, 2, 0, 6.965999999999999E-14, -2.4969999999999997E-14, -1.1E-12, 6.965999999999999E-14, 2.4969999999999997E-14
DataValue, 28.5, 2, 0, 6.912E-14, -2.058E-14, -1.01E-12, 6.912E-14, 2.058E-14
DataValue, 28.400000000000002, 2, 0, 8.257E-14, -9.9199999999999987E-15, -8.8E-13, 8.257E-14, 9.9199999999999987E-15
DataValue, 28.3, 2, 0, 5.3039999999999994E-14, -1.2759999999999999E-14, -1.03E-12, 5.3039999999999994E-14, 1.2759999999999999E-14
DataValue, 28.2, 2, 0, 5.691E-14, -1.2299999999999999E-14, -7.4E-13, 5.691E-14, 1.2299999999999999E-14
DataValue, 28.1, 2, 0, 4.6999999999999995E-14, -7.57E-15, -9.5E-13, 4.6999999999999995E-14, 7.57E-15
DataValue, 28, 2, 0, 4.0999999999999996E-14, -8.73E-15, -7.4E-13, 4.0999999999999996E-14, 8.73E-15
DataValue, 27.900000000000002, 2, 0, 4.07E-14, -3.85E-15, -6.5E-13, 4.07E-14, 3.85E-15
DataValue, 27.8, 2, 0, 3.503E-14, -4.0999999999999996E-16, -9.4E-13, 3.503E-14, 4.0999999999999996E-16
DataValue, 27.7, 2, 0, 3.561E-14, 3.61E-15, -8.9E-13, 3.561E-14, 3.61E-15
DataValue, 27.6, 2, 0, 3.4649999999999996E-14, 7.0399999999999992E-15, -9E-13, 3.4649999999999996E-14, 7.0399999999999992E-15
DataValue, 27.5, 2, 0, 3.648E-14, 1.0719999999999999E-14, -1.13E-12, 3.648E-14, 1.0719999999999999E-14
DataValue, 27.400000000000002, 2, 0, 3.191E-14, 6.4799999999999996E-15, -8.5E-13, 3.191E-14, 6.4799999999999996E-15
DataValue, 27.3, 2, 0, 2.972E-14, 9.75E-15, -1E-12, 2.972E-14, 9.75E-15
DataValue, 27.2, 2, 0, 2.8479999999999996E-14, 7.3299999999999988E-15, -9.4E-13, 2.8479999999999996E-14, 7.3299999999999988E-15
DataValue, 27.1, 2, 0, 2.7579999999999998E-14, 8.7599999999999988E-15, -1.03E-12, 2.7579999999999998E-14, 8.7599999999999988E-15
